> scanwrite 1000 1661

##############################################
#    YAZILABILIRLIK TESTI BASLIYOR           #
##############################################
Aralik : 0x1000 - 0x1661
Yontem : Mevcut degeri oku, ayni degeri geri yaz (GUVENLI)
Durdurmak icin 'q' basin.
----------------------------------------------
CSV: addr_hex,value_hex,write_result
----------------------------------------------
[TX] 01 03 10 00 00 01 80 CA 
[RX] (7 bytes) 01 03 02 41 FF C8 54 
[TX] 01 10 10 00 00 01 02 41 FF C7 81 
[RX] (5 bytes) 01 90 02 CD C1 
0x1000,0x41FF,RO_EX02
[TX] 01 03 10 01 00 01 D1 0A 
[RX] (7 bytes) 01 03 02 63 FE 11 34 
[TX] 01 10 10 01 00 01 02 63 FE 1F 30 
[RX] (5 bytes) 01 90 02 CD C1 
0x1001,0x63FE,RO_EX02
[TX] 01 03 10 02 00 01 21 0A 
[RX] (7 bytes) 01 03 02 00 1E 38 4C 
[TX] 01 10 10 02 00 01 02 00 1E 36 7B 
[RX] (5 bytes) 01 90 02 CD C1 
0x1002,0x001E,RO_EX02
[TX] 01 03 10 03 00 01 70 CA 
[RX] (7 bytes) 01 03 02 FF FF B9 F4 
[TX] 01 10 10 03 00 01 02 FF FF B6 12 
[RX] (5 bytes) 01 90 02 CD C1 
0x1003,0xFFFF,RO_EX02
[TX] 01 03 10 04 00 01 C1 0B 
[RX] (7 bytes) 01 03 02 00 1A 39 8F 
[TX] 01 10 10 04 00 01 02 00 1A 37 DE 
[RX] (5 bytes) 01 90 03 0C 01 
0x1004,0x001A,RO_EX03
[TX] 01 03 10 05 00 01 90 CB 
[RX] (7 bytes) 01 03 02 00 03 F8 45 
[TX] 01 10 10 05 00 01 02 00 03 F7 C5 
[RX] (5 bytes) 01 90 02 CD C1 
0x1005,0x0003,RO_EX02
[TX] 01 03 10 06 00 01 60 CB 
[RX] (7 bytes) 01 03 02 00 1B F8 4F 
[TX] 01 10 10 06 00 01 02 00 1B F7 FC 
[RX] (5 bytes) 01 90 02 CD C1 
0x1006,0x001B,RO_EX02
[TX] 01 03 10 07 00 01 31 0B 
[RX] (7 bytes) 01 03 02 00 11 78 48 
[TX] 01 10 10 07 00 01 02 00 11 76 2A 
[RX] (5 bytes) 01 90 02 CD C1 
0x1007,0x0011,RO_EX02
[TX] 01 03 10 08 00 01 01 08 
[RX] (7 bytes) 01 03 02 00 12 38 49 
[TX] 01 10 10 08 00 01 02 00 12 36 D4 
[RX] (5 bytes) 01 90 02 CD C1 
0x1008,0x0012,RO_EX02
[TX] 01 03 10 09 00 01 50 C8 
[RX] (7 bytes) 01 03 02 00 19 79 8E 
[TX] 01 10 10 09 00 01 02 00 19 76 C2 
[RX] (5 bytes) 01 90 02 CD C1 
0x1009,0x0019,RO_EX02
[TX] 01 03 10 0A 00 01 A0 C8 
[RX] (7 bytes) 01 03 02 00 00 B8 44 
[TX] 01 10 10 0A 00 01 02 00 00 B7 3B 
[RX] (5 bytes) 01 90 02 CD C1 
0x100A,0x0000,RO_EX02
[TX] 01 03 10 0B 00 01 F1 08 
[RX] (7 bytes) 01 03 02 00 01 79 84 
[TX] 01 10 10 0B 00 01 02 00 01 77 2A 
[RX] (5 bytes) 01 90 03 0C 01 
0x100B,0x0001,RO_EX03
[TX] 01 03 10 0C 00 01 40 C9 
[RX] (7 bytes) 01 03 02 00 01 79 84 
[TX] 01 10 10 0C 00 01 02 00 01 76 9D 
[RX] (5 bytes) 01 90 02 CD C1 
0x100C,0x0001,RO_EX02
[TX] 01 03 10 0D 00 01 11 09 
[RX] (7 bytes) 01 03 02 00 00 B8 44 
[TX] 01 10 10 0D 00 01 02 00 00 B6 8C 
[RX] (5 bytes) 01 90 02 CD C1 
0x100D,0x0000,RO_EX02
[TX] 01 03 10 0E 00 01 E1 09 
[RX] (7 bytes) 01 03 02 00 00 B8 44 
[TX] 01 10 10 0E 00 01 02 00 00 B6 BF 
[RX] (5 bytes) 01 90 02 CD C1 
0x100E,0x0000,RO_EX02
[TX] 01 03 10 0F 00 01 B0 C9 
[RX] (7 bytes) 01 03 02 00 00 B8 44 
[TX] 01 10 10 0F 00 01 02 00 00 B7 6E 
[RX] (5 bytes) 01 90 02 CD C1 
0x100F,0x0000,RO_EX02
[TX] 01 03 10 10 00 01 81 0F 
[RX] (7 bytes) 01 03 02 00 00 B8 44 
[TX] 01 10 10 10 00 01 02 00 00 B5 01 
[RX] (5 bytes) 01 90 02 CD C1 
0x1010,0x0000,RO_EX02
[TX] 01 03 10 11 00 01 D0 CF 
[RX] (7 bytes) 01 03 02 00 80 B9 E4 
[TX] 01 10 10 11 00 01 02 00 80 B5 70 
[RX] (5 bytes) 01 90 04 4D C3 
0x1011,0x0080,RO_EX04
[TX] 01 03 10 12 00 01 20 CF 
[RX] (7 bytes) 01 03 02 00 00 B8 44 
[TX] 01 10 10 12 00 01 02 00 00 B4 E3 
[RX] (5 bytes) 01 90 02 CD C1 
0x1012,0x0000,RO_EX02
[TX] 01 03 10 13 00 01 71 0F 
[RX] (7 bytes) 01 03 02 00 01 79 84 
[TX] 01 10 10 13 00 01 02 00 01 74 F2 
[RX] (5 bytes) 01 90 02 CD C1 
0x1013,0x0001,RO_EX02
[TX] 01 03 10 14 00 01 C0 CE 
[RX] (7 bytes) 01 03 02 00 02 39 85 
[TX] 01 10 10 14 00 01 02 00 02 35 44 
[RX] (5 bytes) 01 90 02 CD C1 
0x1014,0x0002,RO_EX02
[TX] 01 03 10 15 00 01 91 0E 
[RX] (7 bytes) 01 03 02 00 00 B8 44 
[TX] 01 10 10 15 00 01 02 00 00 B5 54 
[RX] (5 bytes) 01 90 02 CD C1 
0x1015,0x0000,RO_EX02
[TX] 01 03 10 16 00 01 61 0E 
[RX] (7 bytes) 01 03 02 00 00 B8 44 
[TX] 01 10 10 16 00 01 02 00 00 B5 67 
[RX] (5 bytes) 01 90 02 CD C1 
0x1016,0x0000,RO_EX02
[TX] 01 03 10 17 00 01 30 CE 
[RX] (7 bytes) 01 03 02 00 00 B8 44 
[TX] 01 10 10 17 00 01 02 00 00 B4 B6 
[RX] (5 bytes) 01 90 02 CD C1 
0x1017,0x0000,RO_EX02
[TX] 01 03 10 18 00 01 00 CD 
[RX] (7 bytes) 01 03 02 00 00 B8 44 
[TX] 01 10 10 18 00 01 02 00 00 B4 49 
[RX] (5 bytes) 01 90 02 CD C1 
0x1018,0x0000,RO_EX02
[TX] 01 03 10 19 00 01 51 0D 
[RX] (7 bytes) 01 03 02 00 00 B8 44 
[TX] 01 10 10 19 00 01 02 00 00 B5 98 
[RX] (5 bytes) 01 90 02 CD C1 
0x1019,0x0000,RO_EX02
[TX] 01 03 10 1A 00 01 A1 0D 
[RX] (7 bytes) 01 03 02 00 00 B8 44 
[TX] 01 10 10 1A 00 01 02 00 00 B5 AB 
[RX] (5 bytes) 01 90 02 CD C1 
0x101A,0x0000,RO_EX02
[TX] 01 03 10 1B 00 01 F0 CD 
[RX] (7 bytes) 01 03 02 00 00 B8 44 
[TX] 01 10 10 1B 00 01 02 00 00 B4 7A 
[RX] (5 bytes) 01 90 02 CD C1 
0x101B,0x0000,RO_EX02
[TX] 01 03 10 1C 00 01 41 0C 
[RX] (7 bytes) 01 03 02 00 00 B8 44 
[TX] 01 10 10 1C 00 01 02 00 00 B5 CD 
[RX] (5 bytes) 01 90 02 CD C1 
0x101C,0x0000,RO_EX02
[TX] 01 03 10 1D 00 01 10 CC 
[RX] (7 bytes) 01 03 02 00 00 B8 44 
[TX] 01 10 10 1D 00 01 02 00 00 B4 1C 
[RX] (5 bytes) 01 90 02 CD C1 
0x101D,0x0000,RO_EX02
[TX] 01 03 10 1E 00 01 E0 CC 
[RX] (7 bytes) 01 03 02 00 00 B8 44 
[TX] 01 10 10 1E 00 01 02 00 00 B4 2F 
[RX] (5 bytes) 01 90 02 CD C1 
0x101E,0x0000,RO_EX02
[TX] 01 03 10 1F 00 01 B1 0C 
[RX] (7 bytes) 01 03 02 00 00 B8 44 
[TX] 01 10 10 1F 00 01 02 00 00 B5 FE 
[RX] (5 bytes) 01 90 02 CD C1 
0x101F,0x0000,RO_EX02
[TX] 01 03 10 20 00 01 81 00 
[RX] (7 bytes) 01 03 02 00 00 B8 44 
[TX] 01 10 10 20 00 01 02 00 00 B0 F1 
[RX] (5 bytes) 01 90 02 CD C1 
0x1020,0x0000,RO_EX02
[TX] 01 03 10 21 00 01 D0 C0 
[RX] (7 bytes) 01 03 02 00 00 B8 44 
[TX] 01 10 10 21 00 01 02 00 00 B1 20 
[RX] (5 bytes) 01 90 02 CD C1 
0x1021,0x0000,RO_EX02
[TX] 01 03 10 22 00 01 20 C0 
[RX] (7 bytes) 01 03 02 00 00 B8 44 
[TX] 01 10 10 22 00 01 02 00 00 B1 13 
[RX] (5 bytes) 01 90 02 CD C1 
0x1022,0x0000,RO_EX02
[TX] 01 03 10 23 00 01 71 00 
[RX] (7 bytes) 01 03 02 00 01 79 84 
[TX] 01 10 10 23 00 01 02 00 01 71 02 
[RX] (5 bytes) 01 90 03 0C 01 
0x1023,0x0001,RO_EX03
[TX] 01 03 10 24 00 01 C0 C1 
[RX] (7 bytes) 01 03 02 00 00 B8 44 
[TX] 01 10 10 24 00 01 02 00 00 B1 75 
[RX] (5 bytes) 01 90 02 CD C1 
0x1024,0x0000,RO_EX02
[TX] 01 03 10 25 00 01 91 01 
[RX] (7 bytes) 01 03 02 00 00 B8 44 
[TX] 01 10 10 25 00 01 02 00 00 B0 A4 
[RX] (5 bytes) 01 90 03 0C 01 
0x1025,0x0000,RO_EX03
[TX] 01 03 10 26 00 01 61 01 
[RX] (7 bytes) 01 03 02 00 1E 38 4C 
[TX] 01 10 10 26 00 01 02 00 1E 30 9F 
[RX] (5 bytes) 01 90 02 CD C1 
0x1026,0x001E,RO_EX02
[TX] 01 03 10 27 00 01 30 C1 
[RX] (7 bytes) 01 03 02 00 00 B8 44 
[TX] 01 10 10 27 00 01 02 00 00 B1 46 
[RX] (5 bytes) 01 90 03 0C 01 
0x1027,0x0000,RO_EX03
[TX] 01 03 10 28 00 01 00 C2 
[RX] (7 bytes) 01 03 02 00 00 B8 44 
[TX] 01 10 10 28 00 01 02 00 00 B1 B9 
[RX] (5 bytes) 01 90 04 4D C3 
0x1028,0x0000,RO_EX04
[TX] 01 03 10 29 00 01 51 02 
[RX] (7 bytes) 01 03 02 00 01 79 84 
[TX] 01 10 10 29 00 01 02 00 01 71 A8 
[RX] (5 bytes) 01 90 03 0C 01 
0x1029,0x0001,RO_EX03
[TX] 01 03 10 2A 00 01 A1 02 
[RX] (7 bytes) 01 03 02 00 00 B8 44 
[TX] 01 10 10 2A 00 01 02 00 00 B0 5B 
[RX] (5 bytes) 01 90 02 CD C1 
0x102A,0x0000,RO_EX02
[TX] 01 03 10 2B 00 01 F0 C2 
[RX] (7 bytes) 01 03 02 00 00 B8 44 
[TX] 01 10 10 2B 00 01 02 00 00 B1 8A 
[RX] (5 bytes) 01 90 03 0C 01 
0x102B,0x0000,RO_EX03
[TX] 01 03 10 2C 00 01 41 03 
[RX] (7 bytes) 01 03 02 00 00 B8 44 
[TX] 01 10 10 2C 00 01 02 00 00 B0 3D 
[RX] (5 bytes) 01 90 02 CD C1 
0x102C,0x0000,RO_EX02
[TX] 01 03 10 2D 00 01 10 C3 
[RX] (7 bytes) 01 03 02 00 00 B8 44 
[TX] 01 10 10 2D 00 01 02 00 00 B1 EC 
[RX] (5 bytes) 01 90 03 0C 01 
0x102D,0x0000,RO_EX03
[TX] 01 03 10 2E 00 01 E0 C3 
[RX] (7 bytes) 01 03 02 00 00 B8 44 
[TX] 01 10 10 2E 00 01 02 00 00 B1 DF 
[RX] (5 bytes) 01 90 01 8D C0 
0x102E,0x0000,RO_EX01
[TX] 01 03 10 2F 00 01 B1 03 
[RX] (7 bytes) 01 03 02 00 00 B8 44 
[TX] 01 10 10 2F 00 01 02 00 00 B0 0E 
[RX] (8 bytes) 01 10 10 2F 00 01 34 C0 
0x102F,0x0000,RW
[TX] 01 03 10 30 00 01 80 C5 
[RX] (7 bytes) 01 03 02 00 00 B8 44 
[TX] 01 10 10 30 00 01 02 00 00 B2 61 
[RX] (5 bytes) 01 90 03 0C 01 
0x1030,0x0000,RO_EX03
[TX] 01 03 10 31 00 01 D1 05 
[RX] (7 bytes) 01 03 02 00 00 B8 44 
[TX] 01 10 10 31 00 01 02 00 00 B3 B0 
[RX] (5 bytes) 01 90 02 CD C1 
0x1031,0x0000,RO_EX02
[TX] 01 03 10 32 00 01 21 05 
[RX] (7 bytes) 01 03 02 00 00 B8 44 
[TX] 01 10 10 32 00 01 02 00 00 B3 83 
[RX] (5 bytes) 01 90 02 CD C1 
0x1032,0x0000,RO_EX02
[TX] 01 03 10 33 00 01 70 C5 
[RX] (7 bytes) 01 03 02 00 00 B8 44 
[TX] 01 10 10 33 00 01 02 00 00 B2 52 
[RX] (5 bytes) 01 90 02 CD C1 
0x1033,0x0000,RO_EX02
[TX] 01 03 10 34 00 01 C1 04 
[RX] (7 bytes) 01 03 02 00 01 79 84 
[TX] 01 10 10 34 00 01 02 00 01 72 25 
[RX] (8 bytes) 01 10 10 34 00 01 44 C7 
0x1034,0x0001,RW
[TX] 01 03 10 35 00 01 90 C4 
[RX] (7 bytes) 01 03 02 00 00 B8 44 
[TX] 01 10 10 35 00 01 02 00 00 B2 34 
[RX] (5 bytes) 01 90 03 0C 01 
0x1035,0x0000,RO_EX03
[TX] 01 03 10 36 00 01 60 C4 
[RX] (7 bytes) 01 03 02 00 01 79 84 
[TX] 01 10 10 36 00 01 02 00 01 73 C7 
[RX] (5 bytes) 01 90 02 CD C1 
0x1036,0x0001,RO_EX02
[TX] 01 03 10 37 00 01 31 04 
[RX] (7 bytes) 01 03 02 00 00 B8 44 
[TX] 01 10 10 37 00 01 02 00 00 B3 D6 
[RX] (5 bytes) 01 90 02 CD C1 
0x1037,0x0000,RO_EX02
[TX] 01 03 10 38 00 01 01 07 
[RX] (7 bytes) 01 03 02 00 01 79 84 
[TX] 01 10 10 38 00 01 02 00 01 72 E9 
[RX] (5 bytes) 01 90 04 4D C3 
0x1038,0x0001,RO_EX04
[TX] 01 03 10 39 00 01 50 C7 
[RX] (7 bytes) 01 03 02 00 00 B8 44 
[TX] 01 10 10 39 00 01 02 00 00 B2 F8 
[RX] (5 bytes) 01 90 02 CD C1 
0x1039,0x0000,RO_EX02
[TX] 01 03 10 3A 00 01 A0 C7 
[RX] (7 bytes) 01 03 02 00 00 B8 44 
[TX] 01 10 10 3A 00 01 02 00 00 B2 CB 
[RX] (5 bytes) 01 90 02 CD C1 
0x103A,0x0000,RO_EX02
[TX] 01 03 10 3B 00 01 F1 07 
[RX] (7 bytes) 01 03 02 00 00 B8 44 
[TX] 01 10 10 3B 00 01 02 00 00 B3 1A 
[RX] (5 bytes) 01 90 02 CD C1 
0x103B,0x0000,RO_EX02
[TX] 01 03 10 3C 00 01 40 C6 
[RX] (7 bytes) 01 03 02 00 00 B8 44 
[TX] 01 10 10 3C 00 01 02 00 00 B2 AD 
[RX] (5 bytes) 01 90 02 CD C1 
0x103C,0x0000,RO_EX02
[TX] 01 03 10 3D 00 01 11 06 
[RX] (7 bytes) 01 03 02 00 00 B8 44 
[TX] 01 10 10 3D 00 01 02 00 00 B3 7C 
[RX] (5 bytes) 01 90 02 CD C1 
0x103D,0x0000,RO_EX02
[TX] 01 03 10 3E 00 01 E1 06 
[RX] (7 bytes) 01 03 02 00 00 B8 44 
[TX] 01 10 10 3E 00 01 02 00 00 B3 4F 
[RX] (8 bytes) 01 10 10 3E 00 01 64 C5 
0x103E,0x0000,RW
[TX] 01 03 10 3F 00 01 B0 C6 
[RX] (7 bytes) 01 03 02 00 7F F9 A4 
[TX] 01 10 10 3F 00 01 02 00 7F F3 7E 
[RX] (5 bytes) 01 90 02 CD C1 
0x103F,0x007F,RO_EX02
[TX] 01 03 10 40 00 01 81 1E 
[RX] (7 bytes) 01 03 02 00 00 B8 44 
[TX] 01 10 10 40 00 01 02 00 00 B9 51 
[RX] (5 bytes) 01 90 02 CD C1 
0x1040,0x0000,RO_EX02
[TX] 01 03 10 41 00 01 D0 DE 
[RX] (7 bytes) 01 03 02 00 04 B9 87 
[TX] 01 10 10 41 00 01 02 00 04 B9 43 
[RX] (5 bytes) 01 90 02 CD C1 
0x1041,0x0004,RO_EX02
[TX] 01 03 10 42 00 01 20 DE 
[RX] (7 bytes) 01 03 02 07 FF FA 34 
[TX] 01 10 10 42 00 01 02 07 FF FA C3 
[RX] (5 bytes) 01 90 02 CD C1 
0x1042,0x07FF,RO_EX02
[TX] 01 03 10 43 00 01 71 1E 
[RX] (7 bytes) 01 03 02 FF FF B9 F4 
[TX] 01 10 10 43 00 01 02 FF FF B8 D2 
[RX] (5 bytes) 01 90 02 CD C1 
0x1043,0xFFFF,RO_EX02
[TX] 01 03 10 44 00 01 C0 DF 
[RX] (7 bytes) 01 03 02 00 00 B8 44 
[TX] 01 10 10 44 00 01 02 00 00 B8 D5 
[RX] (8 bytes) 01 10 10 44 00 01 45 1C 
0x1044,0x0000,RW
[TX] 01 03 10 45 00 01 91 1F 
[RX] (7 bytes) 01 03 02 00 01 79 84 
[TX] 01 10 10 45 00 01 02 00 01 78 C4 
[RX] (5 bytes) 01 90 02 CD C1 
0x1045,0x0001,RO_EX02
[TX] 01 03 10 46 00 01 61 1F 
[RX] (7 bytes) 01 03 02 00 01 79 84 
[TX] 01 10 10 46 00 01 02 00 01 78 F7 
[RX] (5 bytes) 01 90 02 CD C1 
0x1046,0x0001,RO_EX02
[TX] 01 03 10 47 00 01 30 DF 
[RX] (7 bytes) 01 03 02 13 88 B5 12 
[TX] 01 10 10 47 00 01 02 13 88 B5 B0 
[RX] (5 bytes) 01 90 02 CD C1 
0x1047,0x1388,RO_EX02
[TX] 01 03 10 48 00 01 00 DC 
[RX] (7 bytes) 01 03 02 00 00 B8 44 
[TX] 01 10 10 48 00 01 02 00 00 B8 19 
[RX] (5 bytes) 01 90 02 CD C1 
0x1048,0x0000,RO_EX02
[TX] 01 03 10 49 00 01 51 1C 
[RX] (7 bytes) 01 03 02 00 00 B8 44 
[TX] 01 10 10 49 00 01 02 00 00 B9 C8 
[RX] (5 bytes) 01 90 02 CD C1 
0x1049,0x0000,RO_EX02
[TX] 01 03 10 4A 00 01 A1 1C 
[RX] (7 bytes) 01 03 02 01 A4 B8 6F 
[TX] 01 10 10 4A 00 01 02 01 A4 B9 D0 
[RX] (5 bytes) 01 90 02 CD C1 
0x104A,0x01A4,RO_EX02
[TX] 01 03 10 4B 00 01 F0 DC 
[RX] (7 bytes) 01 03 02 0D AC BC A9 
[TX] 01 10 10 4B 00 01 02 0D AC BC C7 
[RX] (5 bytes) 01 90 02 CD C1 
0x104B,0x0DAC,RO_EX02
[TX] 01 03 10 4C 00 01 41 1D 
[RX] (7 bytes) 01 03 02 0D AC BC A9 
[TX] 01 10 10 4C 00 01 02 0D AC BD 70 
[RX] (5 bytes) 01 90 02 CD C1 
0x104C,0x0DAC,RO_EX02
[TX] 01 03 10 4D 00 01 10 DD 
[RX] (7 bytes) 01 03 02 00 50 B8 78 
[TX] 01 10 10 4D 00 01 02 00 50 B8 70 
[RX] (5 bytes) 01 90 02 CD C1 
0x104D,0x0050,RO_EX02
[TX] 01 03 10 4E 00 01 E0 DD 
[RX] (7 bytes) 01 03 02 00 50 B8 78 
[TX] 01 10 10 4E 00 01 02 00 50 B8 43 
[RX] (5 bytes) 01 90 02 CD C1 
0x104E,0x0050,RO_EX02
[TX] 01 03 10 4F 00 01 B1 1D 
[RX] (7 bytes) 01 03 02 00 2E 38 58 
[TX] 01 10 10 4F 00 01 02 00 2E 39 B2 
[RX] (5 bytes) 01 90 02 CD C1 
0x104F,0x002E,RO_EX02
[TX] 01 03 10 50 00 01 80 DB 
[RX] (7 bytes) 01 03 02 11 94 B5 BB 
[TX] 01 10 10 50 00 01 02 11 94 B6 3E 
[RX] (5 bytes) 01 90 02 CD C1 
0x1050,0x1194,RO_EX02
[TX] 01 03 10 51 00 01 D1 1B 
[RX] (7 bytes) 01 03 02 00 00 B8 44 
[TX] 01 10 10 51 00 01 02 00 00 BA 10 
[RX] (5 bytes) 01 90 02 CD C1 
0x1051,0x0000,RO_EX02
[TX] 01 03 10 52 00 01 21 1B 
[RX] (7 bytes) 01 03 02 00 05 78 47 
[TX] 01 10 10 52 00 01 02 00 05 7A 20 
[RX] (5 bytes) 01 90 02 CD C1 
0x1052,0x0005,RO_EX02
[TX] 01 03 10 53 00 01 70 DB 
[RX] (7 bytes) 01 03 02 00 00 B8 44 
[TX] 01 10 10 53 00 01 02 00 00 BB F2 
[RX] (5 bytes) 01 90 02 CD C1 
0x1053,0x0000,RO_EX02
[TX] 01 03 10 54 00 01 C1 1A 
[RX] (7 bytes) 01 03 02 00 10 B9 88 
[TX] 01 10 10 54 00 01 02 00 10 BB 89 
[RX] (5 bytes) 01 90 02 CD C1 
0x1054,0x0010,RO_EX02
[TX] 01 03 10 55 00 01 90 DA 
[RX] (7 bytes) 01 03 02 00 10 B9 88 
[TX] 01 10 10 55 00 01 02 00 10 BA 58 
[RX] (5 bytes) 01 90 02 CD C1 
0x1055,0x0010,RO_EX02
[TX] 01 03 10 56 00 01 60 DA 
[RX] (7 bytes) 01 03 02 00 10 B9 88 
[TX] 01 10 10 56 00 01 02 00 10 BA 6B 
[RX] (5 bytes) 01 90 02 CD C1 
0x1056,0x0010,RO_EX02
[TX] 01 03 10 57 00 01 31 1A 
[RX] (7 bytes) 01 03 02 FF D9 38 2E 
[TX] 01 10 10 57 00 01 02 FF D9 3A 1C 
[RX] (5 bytes) 01 90 02 CD C1 
0x1057,0xFFD9,RO_EX02
[TX] 01 03 10 58 00 01 01 19 
[RX] (7 bytes) 01 03 02 00 78 B8 66 
[TX] 01 10 10 58 00 01 02 00 78 BA AB 
[RX] (5 bytes) 01 90 02 CD C1 
0x1058,0x0078,RO_EX02
[TX] 01 03 10 59 00 01 50 D9 
[RX] (7 bytes) 01 03 02 00 00 B8 44 
[TX] 01 10 10 59 00 01 02 00 00 BB 58 
[RX] (5 bytes) 01 90 02 CD C1 
0x1059,0x0000,RO_EX02
[TX] 01 03 10 5A 00 01 A0 D9 
[RX] (7 bytes) 01 03 02 0A 8C BF 41 
[TX] 01 10 10 5A 00 01 02 0A 8C BC 6E 
[RX] (5 bytes) 01 90 02 CD C1 
0x105A,0x0A8C,RO_EX02
[TX] 01 03 10 5B 00 01 F1 19 
[RX] (7 bytes) 01 03 02 00 00 B8 44 
[TX] 01 10 10 5B 00 01 02 00 00 BA BA 
[RX] (5 bytes) 01 90 02 CD C1 
0x105B,0x0000,RO_EX02
[TX] 01 03 10 5C 00 01 40 D8 
[RX] (7 bytes) 01 03 02 00 00 B8 44 
[TX] 01 10 10 5C 00 01 02 00 00 BB 0D 
[RX] (5 bytes) 01 90 02 CD C1 
0x105C,0x0000,RO_EX02
[TX] 01 03 10 5D 00 01 11 18 
[RX] (7 bytes) 01 03 02 00 00 B8 44 
[TX] 01 10 10 5D 00 01 02 00 00 BA DC 
[RX] (5 bytes) 01 90 02 CD C1 
0x105D,0x0000,RO_EX02
[TX] 01 03 10 5E 00 01 E1 18 
[RX] (7 bytes) 01 03 02 00 00 B8 44 
[TX] 01 10 10 5E 00 01 02 00 00 BA EF 
[RX] (5 bytes) 01 90 02 CD C1 
0x105E,0x0000,RO_EX02
[TX] 01 03 10 5F 00 01 B0 D8 
[RX] (7 bytes) 01 03 02 00 00 B8 44 
[TX] 01 10 10 5F 00 01 02 00 00 BB 3E 
[RX] (5 bytes) 01 90 02 CD C1 
0x105F,0x0000,RO_EX02
[TX] 01 03 10 60 00 01 80 D4 
[RX] (7 bytes) 01 03 02 00 01 79 84 
[TX] 01 10 10 60 00 01 02 00 01 7F F1 
[RX] (8 bytes) 01 10 10 60 00 01 05 17 
0x1060,0x0001,RW
[TX] 01 03 10 61 00 01 D1 14 
[RX] (7 bytes) 01 03 02 00 00 B8 44 
[TX] 01 10 10 61 00 01 02 00 00 BF E0 
[RX] (5 bytes) 01 90 02 CD C1 
0x1061,0x0000,RO_EX02
[TX] 01 03 10 62 00 01 21 14 
[RX] (7 bytes) 01 03 02 00 28 B8 5A 
[TX] 01 10 10 62 00 01 02 00 28 BF CD 
[RX] (5 bytes) 01 90 04 4D C3 
0x1062,0x0028,RO_EX04
[TX] 01 03 10 63 00 01 70 D4 
[RX] (7 bytes) 01 03 02 00 00 B8 44 
[TX] 01 10 10 63 00 01 02 00 00 BE 02 
[RX] (5 bytes) 01 90 02 CD C1 
0x1063,0x0000,RO_EX02
[TX] 01 03 10 64 00 01 C1 15 
[RX] (7 bytes) 01 03 02 00 01 79 84 
[TX] 01 10 10 64 00 01 02 00 01 7E 75 
[RX] (8 bytes) 01 10 10 64 00 01 44 D6 
0x1064,0x0001,RW
[TX] 01 03 10 65 00 01 90 D5 
[RX] (7 bytes) 01 03 02 00 00 B8 44 
[TX] 01 10 10 65 00 01 02 00 00 BE 64 
[RX] (5 bytes) 01 90 02 CD C1 
0x1065,0x0000,RO_EX02
[TX] 01 03 10 66 00 01 60 D5 
[RX] (7 bytes) 01 03 02 00 00 B8 44 
[TX] 01 10 10 66 00 01 02 00 00 BE 57 
[RX] (5 bytes) 01 90 02 CD C1 
0x1066,0x0000,RO_EX02
[TX] 01 03 10 67 00 01 31 15 
[RX] (7 bytes) 01 03 02 00 00 B8 44 
[TX] 01 10 10 67 00 01 02 00 00 BF 86 
[RX] (5 bytes) 01 90 02 CD C1 
0x1067,0x0000,RO_EX02
[TX] 01 03 10 68 00 01 01 16 
[RX] (7 bytes) 01 03 02 00 00 B8 44 
[TX] 01 10 10 68 00 01 02 00 00 BF 79 
[RX] (5 bytes) 01 90 02 CD C1 
0x1068,0x0000,RO_EX02
[TX] 01 03 10 69 00 01 50 D6 
[RX] (7 bytes) 01 03 02 00 00 B8 44 
[TX] 01 10 10 69 00 01 02 00 00 BE A8 
[RX] (8 bytes) 01 10 10 69 00 01 D5 15 
0x1069,0x0000,RW
[TX] 01 03 10 6A 00 01 A0 D6 
[RX] (7 bytes) 01 03 02 00 00 B8 44 
[TX] 01 10 10 6A 00 01 02 00 00 BE 9B 
[RX] (5 bytes) 01 90 03 0C 01 
0x106A,0x0000,RO_EX03
[TX] 01 03 10 6B 00 01 F1 16 
[RX] (7 bytes) 01 03 02 00 1E 38 4C 
[TX] 01 10 10 6B 00 01 02 00 1E 3F 42 
[RX] (5 bytes) 01 90 02 CD C1 
0x106B,0x001E,RO_EX02
[TX] 01 03 10 6C 00 01 40 D7 
[RX] (7 bytes) 01 03 02 00 00 B8 44 
[TX] 01 10 10 6C 00 01 02 00 00 BE FD 
[RX] (8 bytes) 01 10 10 6C 00 01 C5 14 
0x106C,0x0000,RW
[TX] 01 03 10 6D 00 01 11 17 
[RX] (7 bytes) 01 03 02 00 00 B8 44 
[TX] 01 10 10 6D 00 01 02 00 00 BF 2C 
[RX] (5 bytes) 01 90 02 CD C1 
0x106D,0x0000,RO_EX02
[TX] 01 03 10 6E 00 01 E1 17 
[RX] (7 bytes) 01 03 02 00 00 B8 44 
[TX] 01 10 10 6E 00 01 02 00 00 BF 1F 
[RX] (5 bytes) 01 90 02 CD C1 
0x106E,0x0000,RO_EX02
[TX] 01 03 10 6F 00 01 B0 D7 
[RX] (7 bytes) 01 03 02 00 00 B8 44 
[TX] 01 10 10 6F 00 01 02 00 00 BE CE 
[RX] (5 bytes) 01 90 02 CD C1 
0x106F,0x0000,RO_EX02
[TX] 01 03 10 70 00 01 81 11 
[RX] (7 bytes) 01 03 02 00 00 B8 44 
[TX] 01 10 10 70 00 01 02 00 00 BC A1 
[RX] (5 bytes) 01 90 02 CD C1 
0x1070,0x0000,RO_EX02
[TX] 01 03 10 71 00 01 D0 D1 
[RX] (7 bytes) 01 03 02 00 00 B8 44 
[TX] 01 10 10 71 00 01 02 00 00 BD 70 
[RX] (5 bytes) 01 90 02 CD C1 
0x1071,0x0000,RO_EX02
[TX] 01 03 10 72 00 01 20 D1 
[RX] (7 bytes) 01 03 02 00 00 B8 44 
[TX] 01 10 10 72 00 01 02 00 00 BD 43 
[RX] (5 bytes) 01 90 02 CD C1 
0x1072,0x0000,RO_EX02
[TX] 01 03 10 73 00 01 71 11 
[RX] (7 bytes) 01 03 02 00 01 79 84 
[TX] 01 10 10 73 00 01 02 00 01 7D 52 
[RX] (8 bytes) 01 10 10 73 00 01 F4 D2 
0x1073,0x0001,RW
[TX] 01 03 10 74 00 01 C0 D0 
[RX] (7 bytes) 01 03 02 00 00 B8 44 
[TX] 01 10 10 74 00 01 02 00 00 BD 25 
[RX] (5 bytes) 01 90 02 CD C1 
0x1074,0x0000,RO_EX02
[TX] 01 03 10 75 00 01 91 10 
[RX] (7 bytes) 01 03 02 00 00 B8 44 
[TX] 01 10 10 75 00 01 02 00 00 BC F4 
[RX] (5 bytes) 01 90 02 CD C1 
0x1075,0x0000,RO_EX02
[TX] 01 03 10 76 00 01 61 10 
[RX] (7 bytes) 01 03 02 00 00 B8 44 
[TX] 01 10 10 76 00 01 02 00 00 BC C7 
[RX] (5 bytes) 01 90 02 CD C1 
0x1076,0x0000,RO_EX02
[TX] 01 03 10 77 00 01 30 D0 
[RX] (7 bytes) 01 03 02 00 00 B8 44 
[TX] 01 10 10 77 00 01 02 00 00 BD 16 
[RX] (5 bytes) 01 90 02 CD C1 
0x1077,0x0000,RO_EX02
[TX] 01 03 10 78 00 01 00 D3 
[RX] (7 bytes) 01 03 02 00 00 B8 44 
[TX] 01 10 10 78 00 01 02 00 00 BD E9 
[RX] (5 bytes) 01 90 02 CD C1 
0x1078,0x0000,RO_EX02
[TX] 01 03 10 79 00 01 51 13 
[RX] (7 bytes) 01 03 02 00 00 B8 44 
[TX] 01 10 10 79 00 01 02 00 00 BC 38 
[RX] (5 bytes) 01 90 02 CD C1 
0x1079,0x0000,RO_EX02
[TX] 01 03 10 7A 00 01 A1 13 
[RX] (7 bytes) 01 03 02 00 00 B8 44 
[TX] 01 10 10 7A 00 01 02 00 00 BC 0B 
[RX] (5 bytes) 01 90 02 CD C1 
0x107A,0x0000,RO_EX02
[TX] 01 03 10 7B 00 01 F0 D3 
[RX] (7 bytes) 01 03 02 00 00 B8 44 
[TX] 01 10 10 7B 00 01 02 00 00 BD DA 
[RX] (5 bytes) 01 90 02 CD C1 
0x107B,0x0000,RO_EX02
[TX] 01 03 10 7C 00 01 41 12 
[RX] (7 bytes) 01 03 02 00 00 B8 44 
[TX] 01 10 10 7C 00 01 02 00 00 BC 6D 
[RX] (5 bytes) 01 90 02 CD C1 
0x107C,0x0000,RO_EX02
[TX] 01 03 10 7D 00 01 10 D2 
[RX] (7 bytes) 01 03 02 00 00 B8 44 
[TX] 01 10 10 7D 00 01 02 00 00 BD BC 
[RX] (5 bytes) 01 90 02 CD C1 
0x107D,0x0000,RO_EX02
[TX] 01 03 10 7E 00 01 E0 D2 
[RX] (7 bytes) 01 03 02 00 00 B8 44 
[TX] 01 10 10 7E 00 01 02 00 00 BD 8F 
[RX] (5 bytes) 01 90 02 CD C1 
0x107E,0x0000,RO_EX02
[TX] 01 03 10 7F 00 01 B1 12 
[RX] (7 bytes) 01 03 02 00 00 B8 44 
[TX] 01 10 10 7F 00 01 02 00 00 BC 5E 
[RX] (5 bytes) 01 90 02 CD C1 
0x107F,0x0000,RO_EX02
[TX] 01 03 10 80 00 01 81 22 
[RX] (7 bytes) 01 03 02 00 00 B8 44 
[TX] 01 10 10 80 00 01 02 00 00 A8 51 
[RX] (5 bytes) 01 90 02 CD C1 
0x1080,0x0000,RO_EX02
[TX] 01 03 10 81 00 01 D0 E2 
[RX] (7 bytes) 01 03 02 00 20 B9 9C 
[TX] 01 10 10 81 00 01 02 00 20 A8 58 
[RX] (5 bytes) 01 90 02 CD C1 
0x1081,0x0020,RO_EX02
[TX] 01 03 10 82 00 01 20 E2 
[RX] (7 bytes) 01 03 02 00 00 B8 44 
[TX] 01 10 10 82 00 01 02 00 00 A9 B3 
[RX] (5 bytes) 01 90 02 CD C1 
0x1082,0x0000,RO_EX02
[TX] 01 03 10 83 00 01 71 22 
[RX] (7 bytes) 01 03 02 00 0F F8 40 
[TX] 01 10 10 83 00 01 02 00 0F E8 66 
[RX] (5 bytes) 01 90 02 CD C1 
0x1083,0x000F,RO_EX02
[TX] 01 03 10 84 00 01 C0 E3 
[RX] (7 bytes) 01 03 02 00 00 B8 44 
[TX] 01 10 10 84 00 01 02 00 00 A9 D5 
[RX] (5 bytes) 01 90 02 CD C1 
0x1084,0x0000,RO_EX02
[TX] 01 03 10 85 00 01 91 23 
[RX] (7 bytes) 01 03 02 00 00 B8 44 
[TX] 01 10 10 85 00 01 02 00 00 A8 04 
[RX] (5 bytes) 01 90 02 CD C1 
0x1085,0x0000,RO_EX02
[TX] 01 03 10 86 00 01 61 23 
[RX] (7 bytes) 01 03 02 00 00 B8 44 
[TX] 01 10 10 86 00 01 02 00 00 A8 37 
[RX] (5 bytes) 01 90 02 CD C1 
0x1086,0x0000,RO_EX02
[TX] 01 03 10 87 00 01 30 E3 
[RX] (7 bytes) 01 03 02 00 00 B8 44 
[TX] 01 10 10 87 00 01 02 00 00 A9 E6 
[RX] (5 bytes) 01 90 02 CD C1 
0x1087,0x0000,RO_EX02
[TX] 01 03 10 88 00 01 00 E0 
[RX] (7 bytes) 01 03 02 00 00 B8 44 
[TX] 01 10 10 88 00 01 02 00 00 A9 19 
[RX] (5 bytes) 01 90 02 CD C1 
0x1088,0x0000,RO_EX02
[TX] 01 03 10 89 00 01 51 20 
[RX] (7 bytes) 01 03 02 00 00 B8 44 
[TX] 01 10 10 89 00 01 02 00 00 A8 C8 
[RX] (5 bytes) 01 90 02 CD C1 
0x1089,0x0000,RO_EX02
[TX] 01 03 10 8A 00 01 A1 20 
[RX] (7 bytes) 01 03 02 00 00 B8 44 
[TX] 01 10 10 8A 00 01 02 00 00 A8 FB 
[RX] (5 bytes) 01 90 02 CD C1 
0x108A,0x0000,RO_EX02
[TX] 01 03 10 8B 00 01 F0 E0 
[RX] (7 bytes) 01 03 02 00 00 B8 44 
[TX] 01 10 10 8B 00 01 02 00 00 A9 2A 
[RX] (5 bytes) 01 90 02 CD C1 
0x108B,0x0000,RO_EX02
[TX] 01 03 10 8C 00 01 41 21 
[RX] (7 bytes) 01 03 02 00 00 B8 44 
[TX] 01 10 10 8C 00 01 02 00 00 A8 9D 
[RX] (5 bytes) 01 90 02 CD C1 
0x108C,0x0000,RO_EX02
[TX] 01 03 10 8D 00 01 10 E1 
[RX] (7 bytes) 01 03 02 00 00 B8 44 
[TX] 01 10 10 8D 00 01 02 00 00 A9 4C 
[RX] (5 bytes) 01 90 02 CD C1 
0x108D,0x0000,RO_EX02
[TX] 01 03 10 8E 00 01 E0 E1 
[RX] (7 bytes) 01 03 02 00 00 B8 44 
[TX] 01 10 10 8E 00 01 02 00 00 A9 7F 
[RX] (5 bytes) 01 90 02 CD C1 
0x108E,0x0000,RO_EX02
[TX] 01 03 10 8F 00 01 B1 21 
[RX] (7 bytes) 01 03 02 00 00 B8 44 
[TX] 01 10 10 8F 00 01 02 00 00 A8 AE 
[RX] (5 bytes) 01 90 02 CD C1 
0x108F,0x0000,RO_EX02
[TX] 01 03 10 90 00 01 80 E7 
[RX] (7 bytes) 01 03 02 00 00 B8 44 
[TX] 01 10 10 90 00 01 02 00 00 AA C1 
[RX] (5 bytes) 01 90 02 CD C1 
0x1090,0x0000,RO_EX02
[TX] 01 03 10 91 00 01 D1 27 
[RX] (7 bytes) 01 03 02 00 00 B8 44 
[TX] 01 10 10 91 00 01 02 00 00 AB 10 
[RX] (5 bytes) 01 90 02 CD C1 
0x1091,0x0000,RO_EX02
[TX] 01 03 10 92 00 01 21 27 
[RX] (7 bytes) 01 03 02 00 00 B8 44 
[TX] 01 10 10 92 00 01 02 00 00 AB 23 
[RX] (5 bytes) 01 90 02 CD C1 
0x1092,0x0000,RO_EX02
[TX] 01 03 10 93 00 01 70 E7 
[RX] (7 bytes) 01 03 02 00 00 B8 44 
[TX] 01 10 10 93 00 01 02 00 00 AA F2 
[RX] (5 bytes) 01 90 02 CD C1 
0x1093,0x0000,RO_EX02
[TX] 01 03 10 94 00 01 C1 26 
[RX] (7 bytes) 01 03 02 00 00 B8 44 
[TX] 01 10 10 94 00 01 02 00 00 AB 45 
[RX] (5 bytes) 01 90 02 CD C1 
0x1094,0x0000,RO_EX02
[TX] 01 03 10 95 00 01 90 E6 
[RX] (7 bytes) 01 03 02 00 00 B8 44 
[TX] 01 10 10 95 00 01 02 00 00 AA 94 
[RX] (5 bytes) 01 90 02 CD C1 
0x1095,0x0000,RO_EX02
[TX] 01 03 10 96 00 01 60 E6 
[RX] (7 bytes) 01 03 02 00 00 B8 44 
[TX] 01 10 10 96 00 01 02 00 00 AA A7 
[RX] (5 bytes) 01 90 02 CD C1 
0x1096,0x0000,RO_EX02
[TX] 01 03 10 97 00 01 31 26 
[RX] (7 bytes) 01 03 02 00 00 B8 44 
[TX] 01 10 10 97 00 01 02 00 00 AB 76 
[RX] (5 bytes) 01 90 02 CD C1 
0x1097,0x0000,RO_EX02
[TX] 01 03 10 98 00 01 01 25 
[RX] (7 bytes) 01 03 02 00 00 B8 44 
[TX] 01 10 10 98 00 01 02 00 00 AB 89 
[RX] (5 bytes) 01 90 02 CD C1 
0x1098,0x0000,RO_EX02
[TX] 01 03 10 99 00 01 50 E5 
[RX] (7 bytes) 01 03 02 00 00 B8 44 
[TX] 01 10 10 99 00 01 02 00 00 AA 58 
[RX] (5 bytes) 01 90 02 CD C1 
0x1099,0x0000,RO_EX02
[TX] 01 03 10 9A 00 01 A0 E5 
[RX] (7 bytes) 01 03 02 00 00 B8 44 
[TX] 01 10 10 9A 00 01 02 00 00 AA 6B 
[RX] (5 bytes) 01 90 02 CD C1 
0x109A,0x0000,RO_EX02
[TX] 01 03 10 9B 00 01 F1 25 
[RX] (7 bytes) 01 03 02 00 00 B8 44 
[TX] 01 10 10 9B 00 01 02 00 00 AB BA 
[RX] (5 bytes) 01 90 02 CD C1 
0x109B,0x0000,RO_EX02
[TX] 01 03 10 9C 00 01 40 E4 
[RX] (7 bytes) 01 03 02 00 00 B8 44 
[TX] 01 10 10 9C 00 01 02 00 00 AA 0D 
[RX] (5 bytes) 01 90 02 CD C1 
0x109C,0x0000,RO_EX02
[TX] 01 03 10 9D 00 01 11 24 
[RX] (7 bytes) 01 03 02 00 00 B8 44 
[TX] 01 10 10 9D 00 01 02 00 00 AB DC 
[RX] (5 bytes) 01 90 02 CD C1 
0x109D,0x0000,RO_EX02
[TX] 01 03 10 9E 00 01 E1 24 
[RX] (7 bytes) 01 03 02 00 00 B8 44 
[TX] 01 10 10 9E 00 01 02 00 00 AB EF 
[RX] (5 bytes) 01 90 02 CD C1 
0x109E,0x0000,RO_EX02
[TX] 01 03 10 9F 00 01 B0 E4 
[RX] (7 bytes) 01 03 02 00 00 B8 44 
[TX] 01 10 10 9F 00 01 02 00 00 AA 3E 
[RX] (5 bytes) 01 90 02 CD C1 
0x109F,0x0000,RO_EX02
[TX] 01 03 10 A0 00 01 80 E8 
[RX] (7 bytes) 01 03 02 00 00 B8 44 
[TX] 01 10 10 A0 00 01 02 00 00 AF 31 
[RX] (5 bytes) 01 90 02 CD C1 
0x10A0,0x0000,RO_EX02
[TX] 01 03 10 A1 00 01 D1 28 
[RX] (7 bytes) 01 03 02 00 00 B8 44 
[TX] 01 10 10 A1 00 01 02 00 00 AE E0 
[RX] (5 bytes) 01 90 02 CD C1 
0x10A1,0x0000,RO_EX02
[TX] 01 03 10 A2 00 01 21 28 
[RX] (7 bytes) 01 03 02 00 00 B8 44 
[TX] 01 10 10 A2 00 01 02 00 00 AE D3 
[RX] (5 bytes) 01 90 02 CD C1 
0x10A2,0x0000,RO_EX02
[TX] 01 03 10 A3 00 01 70 E8 
[RX] (7 bytes) 01 03 02 00 00 B8 44 
[TX] 01 10 10 A3 00 01 02 00 00 AF 02 
[RX] (5 bytes) 01 90 02 CD C1 
0x10A3,0x0000,RO_EX02
[TX] 01 03 10 A4 00 01 C1 29 
[RX] (7 bytes) 01 03 02 00 00 B8 44 
[TX] 01 10 10 A4 00 01 02 00 00 AE B5 
[RX] (5 bytes) 01 90 02 CD C1 
0x10A4,0x0000,RO_EX02
[TX] 01 03 10 A5 00 01 90 E9 
[RX] (7 bytes) 01 03 02 00 01 79 84 
[TX] 01 10 10 A5 00 01 02 00 01 6E A4 
[RX] (8 bytes) 01 10 10 A5 00 01 15 2A 
0x10A5,0x0001,RW
[TX] 01 03 10 A6 00 01 60 E9 
[RX] (7 bytes) 01 03 02 00 00 B8 44 
[TX] 01 10 10 A6 00 01 02 00 00 AF 57 
[RX] (5 bytes) 01 90 02 CD C1 
0x10A6,0x0000,RO_EX02
[TX] 01 03 10 A7 00 01 31 29 
[RX] (7 bytes) 01 03 02 00 00 B8 44 
[TX] 01 10 10 A7 00 01 02 00 00 AE 86 
[RX] (5 bytes) 01 90 02 CD C1 
0x10A7,0x0000,RO_EX02
[TX] 01 03 10 A8 00 01 01 2A 
[RX] (7 bytes) 01 03 02 00 00 B8 44 
[TX] 01 10 10 A8 00 01 02 00 00 AE 79 
[RX] (5 bytes) 01 90 02 CD C1 
0x10A8,0x0000,RO_EX02
[TX] 01 03 10 A9 00 01 50 EA 
[RX] (7 bytes) 01 03 02 00 00 B8 44 
[TX] 01 10 10 A9 00 01 02 00 00 AF A8 
[RX] (5 bytes) 01 90 02 CD C1 
0x10A9,0x0000,RO_EX02
[TX] 01 03 10 AA 00 01 A0 EA 
[RX] (7 bytes) 01 03 02 00 00 B8 44 
[TX] 01 10 10 AA 00 01 02 00 00 AF 9B 
[RX] (5 bytes) 01 90 02 CD C1 
0x10AA,0x0000,RO_EX02
[TX] 01 03 10 AB 00 01 F1 2A 
[RX] (7 bytes) 01 03 02 00 00 B8 44 
[TX] 01 10 10 AB 00 01 02 00 00 AE 4A 
[RX] (5 bytes) 01 90 02 CD C1 
0x10AB,0x0000,RO_EX02
[TX] 01 03 10 AC 00 01 40 EB 
[RX] (7 bytes) 01 03 02 00 00 B8 44 
[TX] 01 10 10 AC 00 01 02 00 00 AF FD 
[RX] (5 bytes) 01 90 02 CD C1 
0x10AC,0x0000,RO_EX02
[TX] 01 03 10 AD 00 01 11 2B 
[RX] (7 bytes) 01 03 02 00 00 B8 44 
[TX] 01 10 10 AD 00 01 02 00 00 AE 2C 
[RX] (5 bytes) 01 90 02 CD C1 
0x10AD,0x0000,RO_EX02
[TX] 01 03 10 AE 00 01 E1 2B 
[RX] (7 bytes) 01 03 02 00 00 B8 44 
[TX] 01 10 10 AE 00 01 02 00 00 AE 1F 
[RX] (5 bytes) 01 90 02 CD C1 
0x10AE,0x0000,RO_EX02
[TX] 01 03 10 AF 00 01 B0 EB 
[RX] (7 bytes) 01 03 02 00 00 B8 44 
[TX] 01 10 10 AF 00 01 02 00 00 AF CE 
[RX] (5 bytes) 01 90 02 CD C1 
0x10AF,0x0000,RO_EX02
[TX] 01 03 10 B0 00 01 81 2D 
[RX] (7 bytes) 01 03 02 00 00 B8 44 
[TX] 01 10 10 B0 00 01 02 00 00 AD A1 
[RX] (5 bytes) 01 90 02 CD C1 
0x10B0,0x0000,RO_EX02
[TX] 01 03 10 B1 00 01 D0 ED 
[RX] (7 bytes) 01 03 02 00 00 B8 44 
[TX] 01 10 10 B1 00 01 02 00 00 AC 70 
[RX] (5 bytes) 01 90 02 CD C1 
0x10B1,0x0000,RO_EX02
[TX] 01 03 10 B2 00 01 20 ED 
[RX] (7 bytes) 01 03 02 00 00 B8 44 
[TX] 01 10 10 B2 00 01 02 00 00 AC 43 
[RX] (5 bytes) 01 90 02 CD C1 
0x10B2,0x0000,RO_EX02
[TX] 01 03 10 B3 00 01 71 2D 
[RX] (7 bytes) 01 03 02 00 00 B8 44 
[TX] 01 10 10 B3 00 01 02 00 00 AD 92 
[RX] (5 bytes) 01 90 02 CD C1 
0x10B3,0x0000,RO_EX02
[TX] 01 03 10 B4 00 01 C0 EC 
[RX] (7 bytes) 01 03 02 00 00 B8 44 
[TX] 01 10 10 B4 00 01 02 00 00 AC 25 
[RX] (5 bytes) 01 90 02 CD C1 
0x10B4,0x0000,RO_EX02
[TX] 01 03 10 B5 00 01 91 2C 
[RX] (7 bytes) 01 03 02 00 00 B8 44 
[TX] 01 10 10 B5 00 01 02 00 00 AD F4 
[RX] (5 bytes) 01 90 02 CD C1 
0x10B5,0x0000,RO_EX02
[TX] 01 03 10 B6 00 01 61 2C 
[RX] (7 bytes) 01 03 02 00 00 B8 44 
[TX] 01 10 10 B6 00 01 02 00 00 AD C7 
[RX] (5 bytes) 01 90 02 CD C1 
0x10B6,0x0000,RO_EX02
[TX] 01 03 10 B7 00 01 30 EC 
[RX] (7 bytes) 01 03 02 00 00 B8 44 
[TX] 01 10 10 B7 00 01 02 00 00 AC 16 
[RX] (5 bytes) 01 90 02 CD C1 
0x10B7,0x0000,RO_EX02
[TX] 01 03 10 B8 00 01 00 EF 
[RX] (7 bytes) 01 03 02 00 00 B8 44 
[TX] 01 10 10 B8 00 01 02 00 00 AC E9 
[RX] (5 bytes) 01 90 02 CD C1 
0x10B8,0x0000,RO_EX02
[TX] 01 03 10 B9 00 01 51 2F 
[RX] (7 bytes) 01 03 02 00 00 B8 44 
[TX] 01 10 10 B9 00 01 02 00 00 AD 38 
[RX] (5 bytes) 01 90 02 CD C1 
0x10B9,0x0000,RO_EX02
[TX] 01 03 10 BA 00 01 A1 2F 
[RX] (7 bytes) 01 03 02 00 00 B8 44 
[TX] 01 10 10 BA 00 01 02 00 00 AD 0B 
[RX] (5 bytes) 01 90 02 CD C1 
0x10BA,0x0000,RO_EX02
[TX] 01 03 10 BB 00 01 F0 EF 
[RX] (7 bytes) 01 03 02 00 00 B8 44 
[TX] 01 10 10 BB 00 01 02 00 00 AC DA 
[RX] (5 bytes) 01 90 02 CD C1 
0x10BB,0x0000,RO_EX02
[TX] 01 03 10 BC 00 01 41 2E 
[RX] (7 bytes) 01 03 02 00 00 B8 44 
[TX] 01 10 10 BC 00 01 02 00 00 AD 6D 
[RX] (5 bytes) 01 90 02 CD C1 
0x10BC,0x0000,RO_EX02
[TX] 01 03 10 BD 00 01 10 EE 
[RX] (7 bytes) 01 03 02 00 00 B8 44 
[TX] 01 10 10 BD 00 01 02 00 00 AC BC 
[RX] (5 bytes) 01 90 02 CD C1 
0x10BD,0x0000,RO_EX02
[TX] 01 03 10 BE 00 01 E0 EE 
[RX] (7 bytes) 01 03 02 00 00 B8 44 
[TX] 01 10 10 BE 00 01 02 00 00 AC 8F 
[RX] (5 bytes) 01 90 02 CD C1 
0x10BE,0x0000,RO_EX02
[TX] 01 03 10 BF 00 01 B1 2E 
[RX] (7 bytes) 01 03 02 00 00 B8 44 
[TX] 01 10 10 BF 00 01 02 00 00 AD 5E 
[RX] (5 bytes) 01 90 02 CD C1 
0x10BF,0x0000,RO_EX02
[TX] 01 03 10 C0 00 01 80 F6 
[RX] (5 bytes) 01 83 02 C0 F1 
[MODBUS] Exception: 0x02 (Gecersiz adres)
[TX] 01 03 10 C1 00 01 D1 36 
[RX] (5 bytes) 01 83 02 C0 F1 
[MODBUS] Exception: 0x02 (Gecersiz adres)
[TX] 01 03 10 C2 00 01 21 36 
[RX] (5 bytes) 01 83 02 C0 F1 
[MODBUS] Exception: 0x02 (Gecersiz adres)
[TX] 01 03 10 C3 00 01 70 F6 
[RX] (5 bytes) 01 83 02 C0 F1 
[MODBUS] Exception: 0x02 (Gecersiz adres)
[TX] 01 03 10 C4 00 01 C1 37 
[RX] (5 bytes) 01 83 02 C0 F1 
[MODBUS] Exception: 0x02 (Gecersiz adres)
[TX] 01 03 10 C5 00 01 90 F7 
[RX] (5 bytes) 01 83 02 C0 F1 
[MODBUS] Exception: 0x02 (Gecersiz adres)
[TX] 01 03 10 C6 00 01 60 F7 
[RX] (5 bytes) 01 83 02 C0 F1 
[MODBUS] Exception: 0x02 (Gecersiz adres)
[TX] 01 03 10 C7 00 01 31 37 
[RX] (5 bytes) 01 83 02 C0 F1 
[MODBUS] Exception: 0x02 (Gecersiz adres)
[TX] 01 03 10 C8 00 01 01 34 
[RX] (5 bytes) 01 83 02 C0 F1 
[MODBUS] Exception: 0x02 (Gecersiz adres)
[TX] 01 03 10 C9 00 01 50 F4 
[RX] (5 bytes) 01 83 02 C0 F1 
[MODBUS] Exception: 0x02 (Gecersiz adres)
[TX] 01 03 10 CA 00 01 A0 F4 
[RX] (5 bytes) 01 83 02 C0 F1 
[MODBUS] Exception: 0x02 (Gecersiz adres)
[TX] 01 03 10 CB 00 01 F1 34 
[RX] (5 bytes) 01 83 02 C0 F1 
[MODBUS] Exception: 0x02 (Gecersiz adres)
[TX] 01 03 10 CC 00 01 40 F5 
[RX] (5 bytes) 01 83 02 C0 F1 
[MODBUS] Exception: 0x02 (Gecersiz adres)
[TX] 01 03 10 CD 00 01 11 35 
[RX] (5 bytes) 01 83 02 C0 F1 
[MODBUS] Exception: 0x02 (Gecersiz adres)
[TX] 01 03 10 CE 00 01 E1 35 
[RX] (5 bytes) 01 83 02 C0 F1 
[MODBUS] Exception: 0x02 (Gecersiz adres)
[TX] 01 03 10 CF 00 01 B0 F5 
[RX] (5 bytes) 01 83 02 C0 F1 
[MODBUS] Exception: 0x02 (Gecersiz adres)
[TX] 01 03 10 D0 00 01 81 33 
[RX] (5 bytes) 01 83 02 C0 F1 
[MODBUS] Exception: 0x02 (Gecersiz adres)
[TX] 01 03 10 D1 00 01 D0 F3 
[RX] (5 bytes) 01 83 02 C0 F1 
[MODBUS] Exception: 0x02 (Gecersiz adres)
[TX] 01 03 10 D2 00 01 20 F3 
[RX] (5 bytes) 01 83 02 C0 F1 
[MODBUS] Exception: 0x02 (Gecersiz adres)
[TX] 01 03 10 D3 00 01 71 33 
[RX] (5 bytes) 01 83 02 C0 F1 
[MODBUS] Exception: 0x02 (Gecersiz adres)
[TX] 01 03 10 D4 00 01 C0 F2 
[RX] (5 bytes) 01 83 02 C0 F1 
[MODBUS] Exception: 0x02 (Gecersiz adres)
[TX] 01 03 10 D5 00 01 91 32 
[RX] (5 bytes) 01 83 02 C0 F1 
[MODBUS] Exception: 0x02 (Gecersiz adres)
[TX] 01 03 10 D6 00 01 61 32 
[RX] (5 bytes) 01 83 02 C0 F1 
[MODBUS] Exception: 0x02 (Gecersiz adres)
[TX] 01 03 10 D7 00 01 30 F2 
[RX] (5 bytes) 01 83 02 C0 F1 
[MODBUS] Exception: 0x02 (Gecersiz adres)
[TX] 01 03 10 D8 00 01 00 F1 
[RX] (5 bytes) 01 83 02 C0 F1 
[MODBUS] Exception: 0x02 (Gecersiz adres)
[TX] 01 03 10 D9 00 01 51 31 
[RX] (5 bytes) 01 83 02 C0 F1 
[MODBUS] Exception: 0x02 (Gecersiz adres)
[TX] 01 03 10 DA 00 01 A1 31 
[RX] (5 bytes) 01 83 02 C0 F1 
[MODBUS] Exception: 0x02 (Gecersiz adres)
[TX] 01 03 10 DB 00 01 F0 F1 
[RX] (5 bytes) 01 83 02 C0 F1 
[MODBUS] Exception: 0x02 (Gecersiz adres)
[TX] 01 03 10 DC 00 01 41 30 
[RX] (5 bytes) 01 83 02 C0 F1 
[MODBUS] Exception: 0x02 (Gecersiz adres)
[TX] 01 03 10 DD 00 01 10 F0 
[RX] (5 bytes) 01 83 02 C0 F1 
[MODBUS] Exception: 0x02 (Gecersiz adres)
[TX] 01 03 10 DE 00 01 E0 F0 
[RX] (5 bytes) 01 83 02 C0 F1 
[MODBUS] Exception: 0x02 (Gecersiz adres)
[TX] 01 03 10 DF 00 01 B1 30 
[RX] (5 bytes) 01 83 02 C0 F1 
[MODBUS] Exception: 0x02 (Gecersiz adres)
[TX] 01 03 10 E0 00 01 81 3C 
[RX] (5 bytes) 01 83 02 C0 F1 
[MODBUS] Exception: 0x02 (Gecersiz adres)
[TX] 01 03 10 E1 00 01 D0 FC 
[RX] (5 bytes) 01 83 02 C0 F1 
[MODBUS] Exception: 0x02 (Gecersiz adres)
[TX] 01 03 10 E2 00 01 20 FC 
[RX] (5 bytes) 01 83 02 C0 F1 
[MODBUS] Exception: 0x02 (Gecersiz adres)
[TX] 01 03 10 E3 00 01 71 3C 
[RX] (5 bytes) 01 83 02 C0 F1 
[MODBUS] Exception: 0x02 (Gecersiz adres)
[TX] 01 03 10 E4 00 01 C0 FD 
[RX] (5 bytes) 01 83 02 C0 F1 
[MODBUS] Exception: 0x02 (Gecersiz adres)
[TX] 01 03 10 E5 00 01 91 3D 
[RX] (5 bytes) 01 83 02 C0 F1 
[MODBUS] Exception: 0x02 (Gecersiz adres)
[TX] 01 03 10 E6 00 01 61 3D 
[RX] (5 bytes) 01 83 02 C0 F1 
[MODBUS] Exception: 0x02 (Gecersiz adres)
[TX] 01 03 10 E7 00 01 30 FD 
[RX] (5 bytes) 01 83 02 C0 F1 
[MODBUS] Exception: 0x02 (Gecersiz adres)
[TX] 01 03 10 E8 00 01 00 FE 
[RX] (5 bytes) 01 83 02 C0 F1 
[MODBUS] Exception: 0x02 (Gecersiz adres)
[TX] 01 03 10 E9 00 01 51 3E 
[RX] (5 bytes) 01 83 02 C0 F1 
[MODBUS] Exception: 0x02 (Gecersiz adres)
[TX] 01 03 10 EA 00 01 A1 3E 
[RX] (5 bytes) 01 83 02 C0 F1 
[MODBUS] Exception: 0x02 (Gecersiz adres)
[TX] 01 03 10 EB 00 01 F0 FE 
[RX] (5 bytes) 01 83 02 C0 F1 
[MODBUS] Exception: 0x02 (Gecersiz adres)
[TX] 01 03 10 EC 00 01 41 3F 
[RX] (5 bytes) 01 83 02 C0 F1 
[MODBUS] Exception: 0x02 (Gecersiz adres)
[TX] 01 03 10 ED 00 01 10 FF 
[RX] (5 bytes) 01 83 02 C0 F1 
[MODBUS] Exception: 0x02 (Gecersiz adres)
[TX] 01 03 10 EE 00 01 E0 FF 
[RX] (5 bytes) 01 83 02 C0 F1 
[MODBUS] Exception: 0x02 (Gecersiz adres)
[TX] 01 03 10 EF 00 01 B1 3F 
[RX] (5 bytes) 01 83 02 C0 F1 
[MODBUS] Exception: 0x02 (Gecersiz adres)
[TX] 01 03 10 F0 00 01 80 F9 
[RX] (5 bytes) 01 83 02 C0 F1 
[MODBUS] Exception: 0x02 (Gecersiz adres)
[TX] 01 03 10 F1 00 01 D1 39 
[RX] (5 bytes) 01 83 02 C0 F1 
[MODBUS] Exception: 0x02 (Gecersiz adres)
[TX] 01 03 10 F2 00 01 21 39 
[RX] (5 bytes) 01 83 02 C0 F1 
[MODBUS] Exception: 0x02 (Gecersiz adres)
[TX] 01 03 10 F3 00 01 70 F9 
[RX] (5 bytes) 01 83 02 C0 F1 
[MODBUS] Exception: 0x02 (Gecersiz adres)
[TX] 01 03 10 F4 00 01 C1 38 
[RX] (5 bytes) 01 83 02 C0 F1 
[MODBUS] Exception: 0x02 (Gecersiz adres)
[TX] 01 03 10 F5 00 01 90 F8 
[RX] (5 bytes) 01 83 02 C0 F1 
[MODBUS] Exception: 0x02 (Gecersiz adres)
[TX] 01 03 10 F6 00 01 60 F8 
[RX] (5 bytes) 01 83 02 C0 F1 
[MODBUS] Exception: 0x02 (Gecersiz adres)
[TX] 01 03 10 F7 00 01 31 38 
[RX] (5 bytes) 01 83 02 C0 F1 
[MODBUS] Exception: 0x02 (Gecersiz adres)
[TX] 01 03 10 F8 00 01 01 3B 
[RX] (5 bytes) 01 83 02 C0 F1 
[MODBUS] Exception: 0x02 (Gecersiz adres)
[TX] 01 03 10 F9 00 01 50 FB 
[RX] (5 bytes) 01 83 02 C0 F1 
[MODBUS] Exception: 0x02 (Gecersiz adres)
[TX] 01 03 10 FA 00 01 A0 FB 
[RX] (5 bytes) 01 83 02 C0 F1 
[MODBUS] Exception: 0x02 (Gecersiz adres)
[TX] 01 03 10 FB 00 01 F1 3B 
[RX] (5 bytes) 01 83 02 C0 F1 
[MODBUS] Exception: 0x02 (Gecersiz adres)
[TX] 01 03 10 FC 00 01 40 FA 
[RX] (5 bytes) 01 83 02 C0 F1 
[MODBUS] Exception: 0x02 (Gecersiz adres)
[TX] 01 03 10 FD 00 01 11 3A 
[RX] (5 bytes) 01 83 02 C0 F1 
[MODBUS] Exception: 0x02 (Gecersiz adres)
[TX] 01 03 10 FE 00 01 E1 3A 
[RX] (5 bytes) 01 83 02 C0 F1 
[MODBUS] Exception: 0x02 (Gecersiz adres)
[TX] 01 03 10 FF 00 01 B0 FA 
[RX] (5 bytes) 01 83 02 C0 F1 
[MODBUS] Exception: 0x02 (Gecersiz adres)
[TX] 01 03 11 00 00 01 81 36 
[RX] (7 bytes) 01 03 02 00 0F F8 40 
[TX] 01 10 11 00 00 01 02 00 0F E7 55 
[RX] (5 bytes) 01 90 02 CD C1 
0x1100,0x000F,RO_EX02
[TX] 01 03 11 01 00 01 D0 F6 
[RX] (7 bytes) 01 03 02 FF FF B9 F4 
[TX] 01 10 11 01 00 01 02 FF FF A7 30 
[RX] (5 bytes) 01 90 02 CD C1 
0x1101,0xFFFF,RO_EX02
[TX] 01 03 11 02 00 01 20 F6 
[RX] (7 bytes) 01 03 02 FF FF B9 F4 
[TX] 01 10 11 02 00 01 02 FF FF A7 03 
[RX] (5 bytes) 01 90 02 CD C1 
0x1102,0xFFFF,RO_EX02
[TX] 01 03 11 03 00 01 71 36 
[RX] (7 bytes) 01 03 02 0F FF FD F4 
[TX] 01 10 11 03 00 01 02 0F FF E2 D2 
[RX] (5 bytes) 01 90 02 CD C1 
0x1103,0x0FFF,RO_EX02
[TX] 01 03 11 04 00 01 C0 F7 
[RX] (7 bytes) 01 03 02 00 01 79 84 
[TX] 01 10 11 04 00 01 02 00 01 67 15 
[RX] (8 bytes) 01 10 11 04 00 01 45 34 
0x1104,0x0001,RW
[TX] 01 03 11 05 00 01 91 37 
[RX] (7 bytes) 01 03 02 00 00 B8 44 
[TX] 01 10 11 05 00 01 02 00 00 A7 04 
[RX] (8 bytes) 01 10 11 05 00 01 14 F4 
0x1105,0x0000,RW
[TX] 01 03 11 06 00 01 61 37 
[RX] (7 bytes) 01 03 02 03 E8 B8 FA 
[TX] 01 10 11 06 00 01 02 03 E8 A7 89 
[RX] (8 bytes) 01 10 11 06 00 01 E4 F4 
0x1106,0x03E8,RW
[TX] 01 03 11 07 00 01 30 F7 
[RX] (7 bytes) 01 03 02 03 E8 B8 FA 
[TX] 01 10 11 07 00 01 02 03 E8 A6 58 
[RX] (8 bytes) 01 10 11 07 00 01 B5 34 
0x1107,0x03E8,RW
[TX] 01 03 11 08 00 01 00 F4 
[RX] (7 bytes) 01 03 02 00 00 B8 44 
[TX] 01 10 11 08 00 01 02 00 00 A6 19 
[RX] (8 bytes) 01 10 11 08 00 01 85 37 
0x1108,0x0000,RW
[TX] 01 03 11 09 00 01 51 34 
[RX] (7 bytes) 01 03 02 00 64 B9 AF 
[TX] 01 10 11 09 00 01 02 00 64 A6 23 
[RX] (8 bytes) 01 10 11 09 00 01 D4 F7 
0x1109,0x0064,RW
[TX] 01 03 11 0A 00 01 A1 34 
[RX] (7 bytes) 01 03 02 00 64 B9 AF 
[TX] 01 10 11 0A 00 01 02 00 64 A6 10 
[RX] (8 bytes) 01 10 11 0A 00 01 24 F7 
0x110A,0x0064,RW
[TX] 01 03 11 0B 00 01 F0 F4 
[RX] (7 bytes) 01 03 02 00 01 79 84 
[TX] 01 10 11 0B 00 01 02 00 01 67 EA 
[RX] (8 bytes) 01 10 11 0B 00 01 75 37 
0x110B,0x0001,RW
[TX] 01 03 11 0C 00 01 41 35 
[RX] (7 bytes) 01 03 02 00 00 B8 44 
[TX] 01 10 11 0C 00 01 02 00 00 A7 9D 
[RX] (5 bytes) 01 90 02 CD C1 
0x110C,0x0000,RO_EX02
[TX] 01 03 11 0D 00 01 10 F5 
[RX] (7 bytes) 01 03 02 00 00 B8 44 
[TX] 01 10 11 0D 00 01 02 00 00 A6 4C 
[RX] (5 bytes) 01 90 02 CD C1 
0x110D,0x0000,RO_EX02
[TX] 01 03 11 0E 00 01 E0 F5 
[RX] (7 bytes) 01 03 02 00 00 B8 44 
[TX] 01 10 11 0E 00 01 02 00 00 A6 7F 
[RX] (5 bytes) 01 90 02 CD C1 
0x110E,0x0000,RO_EX02
[TX] 01 03 11 0F 00 01 B1 35 
[RX] (7 bytes) 01 03 02 00 00 B8 44 
[TX] 01 10 11 0F 00 01 02 00 00 A7 AE 
[RX] (5 bytes) 01 90 02 CD C1 
0x110F,0x0000,RO_EX02
[TX] 01 03 11 10 00 01 80 F3 
[RX] (7 bytes) 01 03 02 00 04 B9 87 
[TX] 01 10 11 10 00 01 02 00 04 A4 02 
[RX] (8 bytes) 01 10 11 10 00 01 05 30 
0x1110,0x0004,RW
[TX] 01 03 11 11 00 01 D1 33 
[RX] (7 bytes) 01 03 02 00 00 B8 44 
[TX] 01 10 11 11 00 01 02 00 00 A4 10 
[RX] (8 bytes) 01 10 11 11 00 01 54 F0 
0x1111,0x0000,RW
[TX] 01 03 11 12 00 01 21 33 
[RX] (7 bytes) 01 03 02 00 03 F8 45 
[TX] 01 10 11 12 00 01 02 00 03 E4 22 
[RX] (5 bytes) 01 90 02 CD C1 
0x1112,0x0003,RO_EX02
[TX] 01 03 11 13 00 01 70 F3 
[RX] (7 bytes) 01 03 02 10 00 B5 84 
[TX] 01 10 11 13 00 01 02 10 00 A8 32 
[RX] (5 bytes) 01 90 02 CD C1 
0x1113,0x1000,RO_EX02
[TX] 01 03 11 14 00 01 C1 32 
[RX] (7 bytes) 01 03 02 17 00 B7 B4 
[TX] 01 10 11 14 00 01 02 17 00 AB B5 
[RX] (5 bytes) 01 90 02 CD C1 
0x1114,0x1700,RO_EX02
[TX] 01 03 11 15 00 01 90 F2 
[RX] (7 bytes) 01 03 02 08 00 BF 84 
[TX] 01 10 11 15 00 01 02 08 00 A2 54 
[RX] (5 bytes) 01 90 02 CD C1 
0x1115,0x0800,RO_EX02
[TX] 01 03 11 16 00 01 60 F2 
[RX] (7 bytes) 01 03 02 0F 00 BD B4 
[TX] 01 10 11 16 00 01 02 0F 00 A0 57 
[RX] (5 bytes) 01 90 02 CD C1 
0x1116,0x0F00,RO_EX02
[TX] 01 03 11 17 00 01 31 32 
[RX] (7 bytes) 01 03 02 00 00 B8 44 
[TX] 01 10 11 17 00 01 02 00 00 A4 76 
[RX] (5 bytes) 01 90 02 CD C1 
0x1117,0x0000,RO_EX02
[TX] 01 03 11 18 00 01 01 31 
[RX] (7 bytes) 01 03 02 09 C4 BF 87 
[TX] 01 10 11 18 00 01 02 09 C4 A3 4A 
[RX] (5 bytes) 01 90 02 CD C1 
0x1118,0x09C4,RO_EX02
[TX] 01 03 11 19 00 01 50 F1 
[RX] (7 bytes) 01 03 02 00 00 B8 44 
[TX] 01 10 11 19 00 01 02 00 00 A5 58 
[RX] (5 bytes) 01 90 02 CD C1 
0x1119,0x0000,RO_EX02
[TX] 01 03 11 1A 00 01 A0 F1 
[RX] (7 bytes) 01 03 02 0B B8 BF 06 
[TX] 01 10 11 1A 00 01 02 0B B8 A2 29 
[RX] (5 bytes) 01 90 02 CD C1 
0x111A,0x0BB8,RO_EX02
[TX] 01 03 11 1B 00 01 F1 31 
[RX] (7 bytes) 01 03 02 00 00 B8 44 
[TX] 01 10 11 1B 00 01 02 00 00 A4 BA 
[RX] (5 bytes) 01 90 02 CD C1 
0x111B,0x0000,RO_EX02
[TX] 01 03 11 1C 00 01 40 F0 
[RX] (7 bytes) 01 03 02 00 00 B8 44 
[TX] 01 10 11 1C 00 01 02 00 00 A5 0D 
[RX] (5 bytes) 01 90 02 CD C1 
0x111C,0x0000,RO_EX02
[TX] 01 03 11 1D 00 01 11 30 
[RX] (7 bytes) 01 03 02 00 00 B8 44 
[TX] 01 10 11 1D 00 01 02 00 00 A4 DC 
[RX] (5 bytes) 01 90 02 CD C1 
0x111D,0x0000,RO_EX02
[TX] 01 03 11 1E 00 01 E1 30 
[RX] (7 bytes) 01 03 02 00 00 B8 44 
[TX] 01 10 11 1E 00 01 02 00 00 A4 EF 
[RX] (5 bytes) 01 90 02 CD C1 
0x111E,0x0000,RO_EX02
[TX] 01 03 11 1F 00 01 B0 F0 
[RX] (7 bytes) 01 03 02 00 00 B8 44 
[TX] 01 10 11 1F 00 01 02 00 00 A5 3E 
[RX] (5 bytes) 01 90 02 CD C1 
0x111F,0x0000,RO_EX02
[TX] 01 03 11 20 00 01 80 FC 
[RX] (7 bytes) 01 03 02 00 00 B8 44 
[TX] 01 10 11 20 00 01 02 00 00 A0 31 
[RX] (8 bytes) 01 10 11 20 00 01 05 3F 
0x1120,0x0000,RW
[TX] 01 03 11 21 00 01 D1 3C 
[RX] (7 bytes) 01 03 02 00 01 79 84 
[TX] 01 10 11 21 00 01 02 00 01 60 20 
[RX] (5 bytes) 01 90 02 CD C1 
0x1121,0x0001,RO_EX02
[TX] 01 03 11 22 00 01 21 3C 
[RX] (7 bytes) 01 03 02 00 00 B8 44 
[TX] 01 10 11 22 00 01 02 00 00 A1 D3 
[RX] (5 bytes) 01 90 02 CD C1 
0x1122,0x0000,RO_EX02
[TX] 01 03 11 23 00 01 70 FC 
[RX] (7 bytes) 01 03 02 17 3B F6 67 
[TX] 01 10 11 23 00 01 02 17 3B EE 21 
[RX] (5 bytes) 01 90 02 CD C1 
0x1123,0x173B,RO_EX02
[TX] 01 03 11 24 00 01 C1 3D 
[RX] (7 bytes) 01 03 02 00 1E 38 4C 
[TX] 01 10 11 24 00 01 02 00 1E 21 BD 
[RX] (5 bytes) 01 90 02 CD C1 
0x1124,0x001E,RO_EX02
[TX] 01 03 11 25 00 01 90 FD 
[RX] (7 bytes) 01 03 02 00 00 B8 44 
[TX] 01 10 11 25 00 01 02 00 00 A0 64 
[RX] (5 bytes) 01 90 02 CD C1 
0x1125,0x0000,RO_EX02
[TX] 01 03 11 26 00 01 60 FD 
[RX] (7 bytes) 01 03 02 11 94 B5 BB 
[TX] 01 10 11 26 00 01 02 11 94 AD A8 
[RX] (5 bytes) 01 90 02 CD C1 
0x1126,0x1194,RO_EX02
[TX] 01 03 11 27 00 01 31 3D 
[RX] (7 bytes) 01 03 02 01 01 78 14 
[TX] 01 10 11 27 00 01 02 01 01 61 D6 
[RX] (5 bytes) 01 90 02 CD C1 
0x1127,0x0101,RO_EX02
[TX] 01 03 11 28 00 01 01 3E 
[RX] (7 bytes) 01 03 02 0C 1F FC 8C 
[TX] 01 10 11 28 00 01 02 0C 1F E5 B1 
[RX] (5 bytes) 01 90 02 CD C1 
0x1128,0x0C1F,RO_EX02
[TX] 01 03 11 29 00 01 50 FE 
[RX] (7 bytes) 01 03 02 00 7F F9 A4 
[TX] 01 10 11 29 00 01 02 00 7F E1 48 
[RX] (5 bytes) 01 90 02 CD C1 
0x1129,0x007F,RO_EX02
[TX] 01 03 11 2A 00 01 A0 FE 
[RX] (7 bytes) 01 03 02 00 00 B8 44 
[TX] 01 10 11 2A 00 01 02 00 00 A0 9B 
[RX] (5 bytes) 01 90 02 CD C1 
0x112A,0x0000,RO_EX02
[TX] 01 03 11 2B 00 01 F1 3E 
[RX] (7 bytes) 01 03 02 00 00 B8 44 
[TX] 01 10 11 2B 00 01 02 00 00 A1 4A 
[RX] (5 bytes) 01 90 02 CD C1 
0x112B,0x0000,RO_EX02
[TX] 01 03 11 2C 00 01 40 FF 
[RX] (7 bytes) 01 03 02 00 00 B8 44 
[TX] 01 10 11 2C 00 01 02 00 00 A0 FD 
[RX] (5 bytes) 01 90 02 CD C1 
0x112C,0x0000,RO_EX02
[TX] 01 03 11 2D 00 01 11 3F 
[RX] (7 bytes) 01 03 02 00 00 B8 44 
[TX] 01 10 11 2D 00 01 02 00 00 A1 2C 
[RX] (5 bytes) 01 90 02 CD C1 
0x112D,0x0000,RO_EX02
[TX] 01 03 11 2E 00 01 E1 3F 
[RX] (7 bytes) 01 03 02 00 00 B8 44 
[TX] 01 10 11 2E 00 01 02 00 00 A1 1F 
[RX] (5 bytes) 01 90 02 CD C1 
0x112E,0x0000,RO_EX02
[TX] 01 03 11 2F 00 01 B0 FF 
[RX] (7 bytes) 01 03 02 00 00 B8 44 
[TX] 01 10 11 2F 00 01 02 00 00 A0 CE 
[RX] (5 bytes) 01 90 02 CD C1 
0x112F,0x0000,RO_EX02
[TX] 01 03 11 30 00 01 81 39 
[RX] (7 bytes) 01 03 02 00 00 B8 44 
[TX] 01 10 11 30 00 01 02 00 00 A2 A1 
[RX] (5 bytes) 01 90 03 0C 01 
0x1130,0x0000,RO_EX03
[TX] 01 03 11 31 00 01 D0 F9 
[RX] (7 bytes) 01 03 02 00 00 B8 44 
[TX] 01 10 11 31 00 01 02 00 00 A3 70 
[RX] (5 bytes) 01 90 02 CD C1 
0x1131,0x0000,RO_EX02
[TX] 01 03 11 32 00 01 20 F9 
[RX] (7 bytes) 01 03 02 00 00 B8 44 
[TX] 01 10 11 32 00 01 02 00 00 A3 43 
[RX] (5 bytes) 01 90 02 CD C1 
0x1132,0x0000,RO_EX02
[TX] 01 03 11 33 00 01 71 39 
[RX] (7 bytes) 01 03 02 00 00 B8 44 
[TX] 01 10 11 33 00 01 02 00 00 A2 92 
[RX] (5 bytes) 01 90 02 CD C1 
0x1133,0x0000,RO_EX02
[TX] 01 03 11 34 00 01 C0 F8 
[RX] (7 bytes) 01 03 02 00 00 B8 44 
[TX] 01 10 11 34 00 01 02 00 00 A3 25 
[RX] (5 bytes) 01 90 02 CD C1 
0x1134,0x0000,RO_EX02
[TX] 01 03 11 35 00 01 91 38 
[RX] (7 bytes) 01 03 02 00 00 B8 44 
[TX] 01 10 11 35 00 01 02 00 00 A2 F4 
[RX] (5 bytes) 01 90 02 CD C1 
0x1135,0x0000,RO_EX02
[TX] 01 03 11 36 00 01 61 38 
[RX] (7 bytes) 01 03 02 00 00 B8 44 
[TX] 01 10 11 36 00 01 02 00 00 A2 C7 
[RX] (5 bytes) 01 90 02 CD C1 
0x1136,0x0000,RO_EX02
[TX] 01 03 11 37 00 01 30 F8 
[RX] (7 bytes) 01 03 02 00 00 B8 44 
[TX] 01 10 11 37 00 01 02 00 00 A3 16 
[RX] (5 bytes) 01 90 02 CD C1 
0x1137,0x0000,RO_EX02
[TX] 01 03 11 38 00 01 00 FB 
[RX] (7 bytes) 01 03 02 00 00 B8 44 
[TX] 01 10 11 38 00 01 02 00 00 A3 E9 
[RX] (5 bytes) 01 90 02 CD C1 
0x1138,0x0000,RO_EX02
[TX] 01 03 11 39 00 01 51 3B 
[RX] (7 bytes) 01 03 02 00 00 B8 44 
[TX] 01 10 11 39 00 01 02 00 00 A2 38 
[RX] (5 bytes) 01 90 02 CD C1 
0x1139,0x0000,RO_EX02
[TX] 01 03 11 3A 00 01 A1 3B 
[RX] (7 bytes) 01 03 02 00 00 B8 44 
[TX] 01 10 11 3A 00 01 02 00 00 A2 0B 
[RX] (5 bytes) 01 90 03 0C 01 
0x113A,0x0000,RO_EX03
[TX] 01 03 11 3B 00 01 F0 FB 
[RX] (7 bytes) 01 03 02 03 E8 B8 FA 
[TX] 01 10 11 3B 00 01 02 03 E8 A3 64 
[RX] (5 bytes) 01 90 02 CD C1 
0x113B,0x03E8,RO_EX02
[TX] 01 03 11 3C 00 01 41 3A 
[RX] (7 bytes) 01 03 02 00 00 B8 44 
[TX] 01 10 11 3C 00 01 02 00 00 A2 6D 
[RX] (5 bytes) 01 90 02 CD C1 
0x113C,0x0000,RO_EX02
[TX] 01 03 11 3D 00 01 10 FA 
[RX] (7 bytes) 01 03 02 00 00 B8 44 
[TX] 01 10 11 3D 00 01 02 00 00 A3 BC 
[RX] (5 bytes) 01 90 02 CD C1 
0x113D,0x0000,RO_EX02
[TX] 01 03 11 3E 00 01 E0 FA 
[RX] (7 bytes) 01 03 02 00 00 B8 44 
[TX] 01 10 11 3E 00 01 02 00 00 A3 8F 
[RX] (5 bytes) 01 90 02 CD C1 
0x113E,0x0000,RO_EX02
[TX] 01 03 11 3F 00 01 B1 3A 
[RX] (7 bytes) 01 03 02 00 00 B8 44 
[TX] 01 10 11 3F 00 01 02 00 00 A2 5E 
[RX] (5 bytes) 01 90 02 CD C1 
0x113F,0x0000,RO_EX02
[TX] 01 03 11 40 00 01 80 E2 
[RX] (7 bytes) 01 03 02 00 00 B8 44 
[TX] 01 10 11 40 00 01 02 00 00 A9 91 
[RX] (5 bytes) 01 90 02 CD C1 
0x1140,0x0000,RO_EX02
[TX] 01 03 11 41 00 01 D1 22 
[RX] (7 bytes) 01 03 02 00 00 B8 44 
[TX] 01 10 11 41 00 01 02 00 00 A8 40 
[RX] (5 bytes) 01 90 02 CD C1 
0x1141,0x0000,RO_EX02
[TX] 01 03 11 42 00 01 21 22 
[RX] (7 bytes) 01 03 02 00 00 B8 44 
[TX] 01 10 11 42 00 01 02 00 00 A8 73 
[RX] (5 bytes) 01 90 02 CD C1 
0x1142,0x0000,RO_EX02
[TX] 01 03 11 43 00 01 70 E2 
[RX] (7 bytes) 01 03 02 00 7F F9 A4 
[TX] 01 10 11 43 00 01 02 00 7F E8 42 
[RX] (5 bytes) 01 90 02 CD C1 
0x1143,0x007F,RO_EX02
[TX] 01 03 11 44 00 01 C1 23 
[RX] (7 bytes) 01 03 02 00 00 B8 44 
[TX] 01 10 11 44 00 01 02 00 00 A8 15 
[RX] (5 bytes) 01 90 03 0C 01 
0x1144,0x0000,RO_EX03
[TX] 01 03 11 45 00 01 90 E3 
[RX] (7 bytes) 01 03 02 00 C8 B9 D2 
[TX] 01 10 11 45 00 01 02 00 C8 A8 52 
[RX] (5 bytes) 01 90 02 CD C1 
0x1145,0x00C8,RO_EX02
[TX] 01 03 11 46 00 01 60 E3 
[RX] (7 bytes) 01 03 02 00 01 79 84 
[TX] 01 10 11 46 00 01 02 00 01 68 37 
[RX] (8 bytes) 01 10 11 46 00 01 E5 20 
0x1146,0x0001,RW
[TX] 01 03 11 47 00 01 31 23 
[RX] (7 bytes) 01 03 02 00 00 B8 44 
[TX] 01 10 11 47 00 01 02 00 00 A8 26 
[RX] (5 bytes) 01 90 02 CD C1 
0x1147,0x0000,RO_EX02
[TX] 01 03 11 48 00 01 01 20 
[RX] (7 bytes) 01 03 02 00 00 B8 44 
[TX] 01 10 11 48 00 01 02 00 00 A8 D9 
[RX] (5 bytes) 01 90 02 CD C1 
0x1148,0x0000,RO_EX02
[TX] 01 03 11 49 00 01 50 E0 
[RX] (7 bytes) 01 03 02 00 00 B8 44 
[TX] 01 10 11 49 00 01 02 00 00 A9 08 
[RX] (5 bytes) 01 90 02 CD C1 
0x1149,0x0000,RO_EX02
[TX] 01 03 11 4A 00 01 A0 E0 
[RX] (7 bytes) 01 03 02 00 00 B8 44 
[TX] 01 10 11 4A 00 01 02 00 00 A9 3B 
[RX] (5 bytes) 01 90 02 CD C1 
0x114A,0x0000,RO_EX02
[TX] 01 03 11 4B 00 01 F1 20 
[RX] (7 bytes) 01 03 02 00 00 B8 44 
[TX] 01 10 11 4B 00 01 02 00 00 A8 EA 
[RX] (5 bytes) 01 90 02 CD C1 
0x114B,0x0000,RO_EX02
[TX] 01 03 11 4C 00 01 40 E1 
[RX] (7 bytes) 01 03 02 00 00 B8 44 
[TX] 01 10 11 4C 00 01 02 00 00 A9 5D 
[RX] (5 bytes) 01 90 02 CD C1 
0x114C,0x0000,RO_EX02
[TX] 01 03 11 4D 00 01 11 21 
[RX] (7 bytes) 01 03 02 00 00 B8 44 
[TX] 01 10 11 4D 00 01 02 00 00 A8 8C 
[RX] (5 bytes) 01 90 02 CD C1 
0x114D,0x0000,RO_EX02
[TX] 01 03 11 4E 00 01 E1 21 
[RX] (7 bytes) 01 03 02 00 00 B8 44 
[TX] 01 10 11 4E 00 01 02 00 00 A8 BF 
[RX] (5 bytes) 01 90 02 CD C1 
0x114E,0x0000,RO_EX02
[TX] 01 03 11 4F 00 01 B0 E1 
[RX] (7 bytes) 01 03 02 00 00 B8 44 
[TX] 01 10 11 4F 00 01 02 00 00 A9 6E 
[RX] (5 bytes) 01 90 02 CD C1 
0x114F,0x0000,RO_EX02
[TX] 01 03 11 50 00 01 81 27 
[RX] (7 bytes) 01 03 02 00 00 B8 44 
[TX] 01 10 11 50 00 01 02 00 00 AB 01 
[RX] (5 bytes) 01 90 02 CD C1 
0x1150,0x0000,RO_EX02
[TX] 01 03 11 51 00 01 D0 E7 
[RX] (7 bytes) 01 03 02 00 00 B8 44 
[TX] 01 10 11 51 00 01 02 00 00 AA D0 
[RX] (5 bytes) 01 90 02 CD C1 
0x1151,0x0000,RO_EX02
[TX] 01 03 11 52 00 01 20 E7 
[RX] (7 bytes) 01 03 02 00 00 B8 44 
[TX] 01 10 11 52 00 01 02 00 00 AA E3 
[RX] (5 bytes) 01 90 02 CD C1 
0x1152,0x0000,RO_EX02
[TX] 01 03 11 53 00 01 71 27 
[RX] (7 bytes) 01 03 02 00 00 B8 44 
[TX] 01 10 11 53 00 01 02 00 00 AB 32 
[RX] (5 bytes) 01 90 02 CD C1 
0x1153,0x0000,RO_EX02
[TX] 01 03 11 54 00 01 C0 E6 
[RX] (7 bytes) 01 03 02 00 00 B8 44 
[TX] 01 10 11 54 00 01 02 00 00 AA 85 
[RX] (5 bytes) 01 90 02 CD C1 
0x1154,0x0000,RO_EX02
[TX] 01 03 11 55 00 01 91 26 
[RX] (7 bytes) 01 03 02 00 00 B8 44 
[TX] 01 10 11 55 00 01 02 00 00 AB 54 
[RX] (5 bytes) 01 90 02 CD C1 
0x1155,0x0000,RO_EX02
[TX] 01 03 11 56 00 01 61 26 
[RX] (7 bytes) 01 03 02 00 00 B8 44 
[TX] 01 10 11 56 00 01 02 00 00 AB 67 
[RX] (5 bytes) 01 90 02 CD C1 
0x1156,0x0000,RO_EX02
[TX] 01 03 11 57 00 01 30 E6 
[RX] (7 bytes) 01 03 02 00 00 B8 44 
[TX] 01 10 11 57 00 01 02 00 00 AA B6 
[RX] (5 bytes) 01 90 02 CD C1 
0x1157,0x0000,RO_EX02
[TX] 01 03 11 58 00 01 00 E5 
[RX] (7 bytes) 01 03 02 00 00 B8 44 
[TX] 01 10 11 58 00 01 02 00 00 AA 49 
[RX] (5 bytes) 01 90 02 CD C1 
0x1158,0x0000,RO_EX02
[TX] 01 03 11 59 00 01 51 25 
[RX] (7 bytes) 01 03 02 00 00 B8 44 
[TX] 01 10 11 59 00 01 02 00 00 AB 98 
[RX] (5 bytes) 01 90 02 CD C1 
0x1159,0x0000,RO_EX02
[TX] 01 03 11 5A 00 01 A1 25 
[RX] (7 bytes) 01 03 02 00 00 B8 44 
[TX] 01 10 11 5A 00 01 02 00 00 AB AB 
[RX] (5 bytes) 01 90 02 CD C1 
0x115A,0x0000,RO_EX02
[TX] 01 03 11 5B 00 01 F0 E5 
[RX] (7 bytes) 01 03 02 00 00 B8 44 
[TX] 01 10 11 5B 00 01 02 00 00 AA 7A 
[RX] (5 bytes) 01 90 02 CD C1 
0x115B,0x0000,RO_EX02
[TX] 01 03 11 5C 00 01 41 24 
[RX] (7 bytes) 01 03 02 00 00 B8 44 
[TX] 01 10 11 5C 00 01 02 00 00 AB CD 
[RX] (5 bytes) 01 90 02 CD C1 
0x115C,0x0000,RO_EX02
[TX] 01 03 11 5D 00 01 10 E4 
[RX] (7 bytes) 01 03 02 00 00 B8 44 
[TX] 01 10 11 5D 00 01 02 00 00 AA 1C 
[RX] (5 bytes) 01 90 02 CD C1 
0x115D,0x0000,RO_EX02
[TX] 01 03 11 5E 00 01 E0 E4 
[RX] (7 bytes) 01 03 02 00 00 B8 44 
[TX] 01 10 11 5E 00 01 02 00 00 AA 2F 
[RX] (5 bytes) 01 90 02 CD C1 
0x115E,0x0000,RO_EX02
[TX] 01 03 11 5F 00 01 B1 24 
[RX] (7 bytes) 01 03 02 00 00 B8 44 
[TX] 01 10 11 5F 00 01 02 00 00 AB FE 
[RX] (5 bytes) 01 90 02 CD C1 
0x115F,0x0000,RO_EX02
[TX] 01 03 11 60 00 01 81 28 
[RX] (7 bytes) 01 03 02 00 00 B8 44 
[TX] 01 10 11 60 00 01 02 00 00 AE F1 
[RX] (5 bytes) 01 90 02 CD C1 
0x1160,0x0000,RO_EX02
[TX] 01 03 11 61 00 01 D0 E8 
[RX] (7 bytes) 01 03 02 00 00 B8 44 
[TX] 01 10 11 61 00 01 02 00 00 AF 20 
[RX] (5 bytes) 01 90 02 CD C1 
0x1161,0x0000,RO_EX02
[TX] 01 03 11 62 00 01 20 E8 
[RX] (7 bytes) 01 03 02 00 00 B8 44 
[TX] 01 10 11 62 00 01 02 00 00 AF 13 
[RX] (5 bytes) 01 90 02 CD C1 
0x1162,0x0000,RO_EX02
[TX] 01 03 11 63 00 01 71 28 
[RX] (7 bytes) 01 03 02 00 00 B8 44 
[TX] 01 10 11 63 00 01 02 00 00 AE C2 
[RX] (5 bytes) 01 90 02 CD C1 
0x1163,0x0000,RO_EX02
[TX] 01 03 11 64 00 01 C0 E9 
[RX] (7 bytes) 01 03 02 00 00 B8 44 
[TX] 01 10 11 64 00 01 02 00 00 AF 75 
[RX] (5 bytes) 01 90 02 CD C1 
0x1164,0x0000,RO_EX02
[TX] 01 03 11 65 00 01 91 29 
[RX] (7 bytes) 01 03 02 00 00 B8 44 
[TX] 01 10 11 65 00 01 02 00 00 AE A4 
[RX] (5 bytes) 01 90 02 CD C1 
0x1165,0x0000,RO_EX02
[TX] 01 03 11 66 00 01 61 29 
[RX] (7 bytes) 01 03 02 00 00 B8 44 
[TX] 01 10 11 66 00 01 02 00 00 AE 97 
[RX] (5 bytes) 01 90 02 CD C1 
0x1166,0x0000,RO_EX02
[TX] 01 03 11 67 00 01 30 E9 
[RX] (7 bytes) 01 03 02 00 00 B8 44 
[TX] 01 10 11 67 00 01 02 00 00 AF 46 
[RX] (5 bytes) 01 90 02 CD C1 
0x1167,0x0000,RO_EX02
[TX] 01 03 11 68 00 01 00 EA 
[RX] (7 bytes) 01 03 02 00 00 B8 44 
[TX] 01 10 11 68 00 01 02 00 00 AF B9 
[RX] (5 bytes) 01 90 02 CD C1 
0x1168,0x0000,RO_EX02
[TX] 01 03 11 69 00 01 51 2A 
[RX] (7 bytes) 01 03 02 00 00 B8 44 
[TX] 01 10 11 69 00 01 02 00 00 AE 68 
[RX] (5 bytes) 01 90 02 CD C1 
0x1169,0x0000,RO_EX02
[TX] 01 03 11 6A 00 01 A1 2A 
[RX] (7 bytes) 01 03 02 00 00 B8 44 
[TX] 01 10 11 6A 00 01 02 00 00 AE 5B 
[RX] (5 bytes) 01 90 02 CD C1 
0x116A,0x0000,RO_EX02
[TX] 01 03 11 6B 00 01 F0 EA 
[RX] (7 bytes) 01 03 02 00 00 B8 44 
[TX] 01 10 11 6B 00 01 02 00 00 AF 8A 
[RX] (5 bytes) 01 90 02 CD C1 
0x116B,0x0000,RO_EX02
[TX] 01 03 11 6C 00 01 41 2B 
[RX] (7 bytes) 01 03 02 00 00 B8 44 
[TX] 01 10 11 6C 00 01 02 00 00 AE 3D 
[RX] (5 bytes) 01 90 02 CD C1 
0x116C,0x0000,RO_EX02
[TX] 01 03 11 6D 00 01 10 EB 
[RX] (7 bytes) 01 03 02 00 00 B8 44 
[TX] 01 10 11 6D 00 01 02 00 00 AF EC 
[RX] (5 bytes) 01 90 02 CD C1 
0x116D,0x0000,RO_EX02
[TX] 01 03 11 6E 00 01 E0 EB 
[RX] (7 bytes) 01 03 02 00 00 B8 44 
[TX] 01 10 11 6E 00 01 02 00 00 AF DF 
[RX] (5 bytes) 01 90 02 CD C1 
0x116E,0x0000,RO_EX02
[TX] 01 03 11 6F 00 01 B1 2B 
[RX] (7 bytes) 01 03 02 00 00 B8 44 
[TX] 01 10 11 6F 00 01 02 00 00 AE 0E 
[RX] (5 bytes) 01 90 02 CD C1 
0x116F,0x0000,RO_EX02
[TX] 01 03 11 70 00 01 80 ED 
[RX] (7 bytes) 01 03 02 00 00 B8 44 
[TX] 01 10 11 70 00 01 02 00 00 AC 61 
[RX] (5 bytes) 01 90 02 CD C1 
0x1170,0x0000,RO_EX02
[TX] 01 03 11 71 00 01 D1 2D 
[RX] (7 bytes) 01 03 02 00 00 B8 44 
[TX] 01 10 11 71 00 01 02 00 00 AD B0 
[RX] (5 bytes) 01 90 02 CD C1 
0x1171,0x0000,RO_EX02
[TX] 01 03 11 72 00 01 21 2D 
[RX] (7 bytes) 01 03 02 00 00 B8 44 
[TX] 01 10 11 72 00 01 02 00 00 AD 83 
[RX] (5 bytes) 01 90 02 CD C1 
0x1172,0x0000,RO_EX02
[TX] 01 03 11 73 00 01 70 ED 
[RX] (7 bytes) 01 03 02 00 00 B8 44 
[TX] 01 10 11 73 00 01 02 00 00 AC 52 
[RX] (5 bytes) 01 90 02 CD C1 
0x1173,0x0000,RO_EX02
[TX] 01 03 11 74 00 01 C1 2C 
[RX] (7 bytes) 01 03 02 00 00 B8 44 
[TX] 01 10 11 74 00 01 02 00 00 AD E5 
[RX] (5 bytes) 01 90 02 CD C1 
0x1174,0x0000,RO_EX02
[TX] 01 03 11 75 00 01 90 EC 
[RX] (7 bytes) 01 03 02 00 00 B8 44 
[TX] 01 10 11 75 00 01 02 00 00 AC 34 
[RX] (5 bytes) 01 90 02 CD C1 
0x1175,0x0000,RO_EX02
[TX] 01 03 11 76 00 01 60 EC 
[RX] (7 bytes) 01 03 02 00 00 B8 44 
[TX] 01 10 11 76 00 01 02 00 00 AC 07 
[RX] (5 bytes) 01 90 02 CD C1 
0x1176,0x0000,RO_EX02
[TX] 01 03 11 77 00 01 31 2C 
[RX] (7 bytes) 01 03 02 00 00 B8 44 
[TX] 01 10 11 77 00 01 02 00 00 AD D6 
[RX] (5 bytes) 01 90 02 CD C1 
0x1177,0x0000,RO_EX02
[TX] 01 03 11 78 00 01 01 2F 
[RX] (7 bytes) 01 03 02 00 00 B8 44 
[TX] 01 10 11 78 00 01 02 00 00 AD 29 
[RX] (5 bytes) 01 90 02 CD C1 
0x1178,0x0000,RO_EX02
[TX] 01 03 11 79 00 01 50 EF 
[RX] (7 bytes) 01 03 02 00 00 B8 44 
[TX] 01 10 11 79 00 01 02 00 00 AC F8 
[RX] (5 bytes) 01 90 02 CD C1 
0x1179,0x0000,RO_EX02
[TX] 01 03 11 7A 00 01 A0 EF 
[RX] (7 bytes) 01 03 02 00 00 B8 44 
[TX] 01 10 11 7A 00 01 02 00 00 AC CB 
[RX] (5 bytes) 01 90 02 CD C1 
0x117A,0x0000,RO_EX02
[TX] 01 03 11 7B 00 01 F1 2F 
[RX] (7 bytes) 01 03 02 00 00 B8 44 
[TX] 01 10 11 7B 00 01 02 00 00 AD 1A 
[RX] (5 bytes) 01 90 02 CD C1 
0x117B,0x0000,RO_EX02
[TX] 01 03 11 7C 00 01 40 EE 
[RX] (7 bytes) 01 03 02 00 00 B8 44 
[TX] 01 10 11 7C 00 01 02 00 00 AC AD 
[RX] (5 bytes) 01 90 02 CD C1 
0x117C,0x0000,RO_EX02
[TX] 01 03 11 7D 00 01 11 2E 
[RX] (7 bytes) 01 03 02 00 00 B8 44 
[TX] 01 10 11 7D 00 01 02 00 00 AD 7C 
[RX] (5 bytes) 01 90 02 CD C1 
0x117D,0x0000,RO_EX02
[TX] 01 03 11 7E 00 01 E1 2E 
[RX] (7 bytes) 01 03 02 00 00 B8 44 
[TX] 01 10 11 7E 00 01 02 00 00 AD 4F 
[RX] (5 bytes) 01 90 02 CD C1 
0x117E,0x0000,RO_EX02
[TX] 01 03 11 7F 00 01 B0 EE 
[RX] (7 bytes) 01 03 02 00 00 B8 44 
[TX] 01 10 11 7F 00 01 02 00 00 AC 9E 
[RX] (5 bytes) 01 90 02 CD C1 
0x117F,0x0000,RO_EX02
[TX] 01 03 11 80 00 01 80 DE 
[RX] (7 bytes) 01 03 02 00 00 B8 44 
[TX] 01 10 11 80 00 01 02 00 00 B8 91 
[RX] (5 bytes) 01 90 02 CD C1 
0x1180,0x0000,RO_EX02
[TX] 01 03 11 81 00 01 D1 1E 
[RX] (7 bytes) 01 03 02 03 FF F8 F4 
[TX] 01 10 11 81 00 01 02 03 FF F9 F0 
[RX] (5 bytes) 01 90 02 CD C1 
0x1181,0x03FF,RO_EX02
[TX] 01 03 11 82 00 01 21 1E 
[RX] (7 bytes) 01 03 02 FF FF B9 F4 
[TX] 01 10 11 82 00 01 02 FF FF B8 C3 
[RX] (5 bytes) 01 90 02 CD C1 
0x1182,0xFFFF,RO_EX02
[TX] 01 03 11 83 00 01 70 DE 
[RX] (7 bytes) 01 03 02 FF FF B9 F4 
[TX] 01 10 11 83 00 01 02 FF FF B9 12 
[RX] (5 bytes) 01 90 02 CD C1 
0x1183,0xFFFF,RO_EX02
[TX] 01 03 11 84 00 01 C1 1F 
[RX] (7 bytes) 01 03 02 00 00 B8 44 
[TX] 01 10 11 84 00 01 02 00 00 B9 15 
[RX] (5 bytes) 01 90 03 0C 01 
0x1184,0x0000,RO_EX03
[TX] 01 03 11 85 00 01 90 DF 
[RX] (7 bytes) 01 03 02 00 00 B8 44 
[TX] 01 10 11 85 00 01 02 00 00 B8 C4 
[RX] (5 bytes) 01 90 02 CD C1 
0x1185,0x0000,RO_EX02
[TX] 01 03 11 86 00 01 60 DF 
[RX] (7 bytes) 01 03 02 00 00 B8 44 
[TX] 01 10 11 86 00 01 02 00 00 B8 F7 
[RX] (5 bytes) 01 90 02 CD C1 
0x1186,0x0000,RO_EX02
[TX] 01 03 11 87 00 01 31 1F 
[RX] (7 bytes) 01 03 02 00 00 B8 44 
[TX] 01 10 11 87 00 01 02 00 00 B9 26 
[RX] (5 bytes) 01 90 01 8D C0 
0x1187,0x0000,RO_EX01
[TX] 01 03 11 88 00 01 01 1C 
[RX] (7 bytes) 01 03 02 00 00 B8 44 
[TX] 01 10 11 88 00 01 02 00 00 B9 D9 
[RX] (5 bytes) 01 90 02 CD C1 
0x1188,0x0000,RO_EX02
[TX] 01 03 11 89 00 01 50 DC 
[RX] (7 bytes) 01 03 02 00 00 B8 44 
[TX] 01 10 11 89 00 01 02 00 00 B8 08 
[RX] (5 bytes) 01 90 01 8D C0 
0x1189,0x0000,RO_EX01
[TX] 01 03 11 8A 00 01 A0 DC 
[RX] (7 bytes) 01 03 02 00 00 B8 44 
[TX] 01 10 11 8A 00 01 02 00 00 B8 3B 
[RX] (5 bytes) 01 90 02 CD C1 
0x118A,0x0000,RO_EX02
[TX] 01 03 11 8B 00 01 F1 1C 
[RX] (7 bytes) 01 03 02 00 00 B8 44 
[TX] 01 10 11 8B 00 01 02 00 00 B9 EA 
[RX] (5 bytes) 01 90 02 CD C1 
0x118B,0x0000,RO_EX02
[TX] 01 03 11 8C 00 01 40 DD 
[RX] (7 bytes) 01 03 02 00 00 B8 44 
[TX] 01 10 11 8C 00 01 02 00 00 B8 5D 
[RX] (5 bytes) 01 90 02 CD C1 
0x118C,0x0000,RO_EX02
[TX] 01 03 11 8D 00 01 11 1D 
[RX] (7 bytes) 01 03 02 00 00 B8 44 
[TX] 01 10 11 8D 00 01 02 00 00 B9 8C 
[RX] (5 bytes) 01 90 02 CD C1 
0x118D,0x0000,RO_EX02
[TX] 01 03 11 8E 00 01 E1 1D 
[RX] (7 bytes) 01 03 02 00 00 B8 44 
[TX] 01 10 11 8E 00 01 02 00 00 B9 BF 
[RX] (5 bytes) 01 90 02 CD C1 
0x118E,0x0000,RO_EX02
[TX] 01 03 11 8F 00 01 B0 DD 
[RX] (7 bytes) 01 03 02 00 00 B8 44 
[TX] 01 10 11 8F 00 01 02 00 00 B8 6E 
[RX] (5 bytes) 01 90 02 CD C1 
0x118F,0x0000,RO_EX02
[TX] 01 03 11 90 00 01 81 1B 
[RX] (7 bytes) 01 03 02 00 00 B8 44 
[TX] 01 10 11 90 00 01 02 00 00 BA 01 
[RX] (5 bytes) 01 90 02 CD C1 
0x1190,0x0000,RO_EX02
[TX] 01 03 11 91 00 01 D0 DB 
[RX] (7 bytes) 01 03 02 00 00 B8 44 
[TX] 01 10 11 91 00 01 02 00 00 BB D0 
[RX] (5 bytes) 01 90 02 CD C1 
0x1191,0x0000,RO_EX02
[TX] 01 03 11 92 00 01 20 DB 
[RX] (7 bytes) 01 03 02 00 00 B8 44 
[TX] 01 10 11 92 00 01 02 00 00 BB E3 
[RX] (5 bytes) 01 90 02 CD C1 
0x1192,0x0000,RO_EX02
[TX] 01 03 11 93 00 01 71 1B 
[RX] (7 bytes) 01 03 02 00 00 B8 44 
[TX] 01 10 11 93 00 01 02 00 00 BA 32 
[RX] (5 bytes) 01 90 02 CD C1 
0x1193,0x0000,RO_EX02
[TX] 01 03 11 94 00 01 C0 DA 
[RX] (7 bytes) 01 03 02 00 00 B8 44 
[TX] 01 10 11 94 00 01 02 00 00 BB 85 
[RX] (5 bytes) 01 90 02 CD C1 
0x1194,0x0000,RO_EX02
[TX] 01 03 11 95 00 01 91 1A 
[RX] (7 bytes) 01 03 02 00 00 B8 44 
[TX] 01 10 11 95 00 01 02 00 00 BA 54 
[RX] (5 bytes) 01 90 02 CD C1 
0x1195,0x0000,RO_EX02
[TX] 01 03 11 96 00 01 61 1A 
[RX] (7 bytes) 01 03 02 00 00 B8 44 
[TX] 01 10 11 96 00 01 02 00 00 BA 67 
[RX] (5 bytes) 01 90 02 CD C1 
0x1196,0x0000,RO_EX02
[TX] 01 03 11 97 00 01 30 DA 
[RX] (7 bytes) 01 03 02 00 00 B8 44 
[TX] 01 10 11 97 00 01 02 00 00 BB B6 
[RX] (5 bytes) 01 90 02 CD C1 
0x1197,0x0000,RO_EX02
[TX] 01 03 11 98 00 01 00 D9 
[RX] (7 bytes) 01 03 02 00 00 B8 44 
[TX] 01 10 11 98 00 01 02 00 00 BB 49 
[RX] (5 bytes) 01 90 02 CD C1 
0x1198,0x0000,RO_EX02
[TX] 01 03 11 99 00 01 51 19 
[RX] (7 bytes) 01 03 02 00 00 B8 44 
[TX] 01 10 11 99 00 01 02 00 00 BA 98 
[RX] (5 bytes) 01 90 02 CD C1 
0x1199,0x0000,RO_EX02
[TX] 01 03 11 9A 00 01 A1 19 
[RX] (7 bytes) 01 03 02 00 00 B8 44 
[TX] 01 10 11 9A 00 01 02 00 00 BA AB 
[RX] (5 bytes) 01 90 02 CD C1 
0x119A,0x0000,RO_EX02
[TX] 01 03 11 9B 00 01 F0 D9 
[RX] (7 bytes) 01 03 02 00 00 B8 44 
[TX] 01 10 11 9B 00 01 02 00 00 BB 7A 
[RX] (5 bytes) 01 90 02 CD C1 
0x119B,0x0000,RO_EX02
[TX] 01 03 11 9C 00 01 41 18 
[RX] (7 bytes) 01 03 02 00 00 B8 44 
[TX] 01 10 11 9C 00 01 02 00 00 BA CD 
[RX] (5 bytes) 01 90 02 CD C1 
0x119C,0x0000,RO_EX02
[TX] 01 03 11 9D 00 01 10 D8 
[RX] (7 bytes) 01 03 02 00 00 B8 44 
[TX] 01 10 11 9D 00 01 02 00 00 BB 1C 
[RX] (5 bytes) 01 90 02 CD C1 
0x119D,0x0000,RO_EX02
[TX] 01 03 11 9E 00 01 E0 D8 
[RX] (7 bytes) 01 03 02 00 00 B8 44 
[TX] 01 10 11 9E 00 01 02 00 00 BB 2F 
[RX] (5 bytes) 01 90 02 CD C1 
0x119E,0x0000,RO_EX02
[TX] 01 03 11 9F 00 01 B1 18 
[RX] (7 bytes) 01 03 02 00 00 B8 44 
[TX] 01 10 11 9F 00 01 02 00 00 BA FE 
[RX] (5 bytes) 01 90 02 CD C1 
0x119F,0x0000,RO_EX02
[TX] 01 03 11 A0 00 01 81 14 
[RX] (7 bytes) 01 03 02 00 00 B8 44 
[TX] 01 10 11 A0 00 01 02 00 00 BF F1 
[RX] (5 bytes) 01 90 02 CD C1 
0x11A0,0x0000,RO_EX02
[TX] 01 03 11 A1 00 01 D0 D4 
[RX] (7 bytes) 01 03 02 00 00 B8 44 
[TX] 01 10 11 A1 00 01 02 00 00 BE 20 
[RX] (5 bytes) 01 90 02 CD C1 
0x11A1,0x0000,RO_EX02
[TX] 01 03 11 A2 00 01 20 D4 
[RX] (7 bytes) 01 03 02 00 00 B8 44 
[TX] 01 10 11 A2 00 01 02 00 00 BE 13 
[RX] (5 bytes) 01 90 02 CD C1 
0x11A2,0x0000,RO_EX02
[TX] 01 03 11 A3 00 01 71 14 
[RX] (7 bytes) 01 03 02 00 00 B8 44 
[TX] 01 10 11 A3 00 01 02 00 00 BF C2 
[RX] (5 bytes) 01 90 02 CD C1 
0x11A3,0x0000,RO_EX02
[TX] 01 03 11 A4 00 01 C0 D5 
[RX] (7 bytes) 01 03 02 00 00 B8 44 
[TX] 01 10 11 A4 00 01 02 00 00 BE 75 
[RX] (5 bytes) 01 90 02 CD C1 
0x11A4,0x0000,RO_EX02
[TX] 01 03 11 A5 00 01 91 15 
[RX] (7 bytes) 01 03 02 00 00 B8 44 
[TX] 01 10 11 A5 00 01 02 00 00 BF A4 
[RX] (5 bytes) 01 90 02 CD C1 
0x11A5,0x0000,RO_EX02
[TX] 01 03 11 A6 00 01 61 15 
[RX] (7 bytes) 01 03 02 00 00 B8 44 
[TX] 01 10 11 A6 00 01 02 00 00 BF 97 
[RX] (5 bytes) 01 90 02 CD C1 
0x11A6,0x0000,RO_EX02
[TX] 01 03 11 A7 00 01 30 D5 
[RX] (7 bytes) 01 03 02 00 00 B8 44 
[TX] 01 10 11 A7 00 01 02 00 00 BE 46 
[RX] (5 bytes) 01 90 02 CD C1 
0x11A7,0x0000,RO_EX02
[TX] 01 03 11 A8 00 01 00 D6 
[RX] (7 bytes) 01 03 02 00 00 B8 44 
[TX] 01 10 11 A8 00 01 02 00 00 BE B9 
[RX] (5 bytes) 01 90 02 CD C1 
0x11A8,0x0000,RO_EX02
[TX] 01 03 11 A9 00 01 51 16 
[RX] (7 bytes) 01 03 02 00 00 B8 44 
[TX] 01 10 11 A9 00 01 02 00 00 BF 68 
[RX] (5 bytes) 01 90 02 CD C1 
0x11A9,0x0000,RO_EX02
[TX] 01 03 11 AA 00 01 A1 16 
[RX] (7 bytes) 01 03 02 00 00 B8 44 
[TX] 01 10 11 AA 00 01 02 00 00 BF 5B 
[RX] (5 bytes) 01 90 02 CD C1 
0x11AA,0x0000,RO_EX02
[TX] 01 03 11 AB 00 01 F0 D6 
[RX] (7 bytes) 01 03 02 00 00 B8 44 
[TX] 01 10 11 AB 00 01 02 00 00 BE 8A 
[RX] (5 bytes) 01 90 02 CD C1 
0x11AB,0x0000,RO_EX02
[TX] 01 03 11 AC 00 01 41 17 
[RX] (7 bytes) 01 03 02 00 00 B8 44 
[TX] 01 10 11 AC 00 01 02 00 00 BF 3D 
[RX] (5 bytes) 01 90 02 CD C1 
0x11AC,0x0000,RO_EX02
[TX] 01 03 11 AD 00 01 10 D7 
[RX] (7 bytes) 01 03 02 00 00 B8 44 
[TX] 01 10 11 AD 00 01 02 00 00 BE EC 
[RX] (5 bytes) 01 90 02 CD C1 
0x11AD,0x0000,RO_EX02
[TX] 01 03 11 AE 00 01 E0 D7 
[RX] (7 bytes) 01 03 02 00 00 B8 44 
[TX] 01 10 11 AE 00 01 02 00 00 BE DF 
[RX] (5 bytes) 01 90 02 CD C1 
0x11AE,0x0000,RO_EX02
[TX] 01 03 11 AF 00 01 B1 17 
[RX] (7 bytes) 01 03 02 00 00 B8 44 
[TX] 01 10 11 AF 00 01 02 00 00 BF 0E 
[RX] (5 bytes) 01 90 02 CD C1 
0x11AF,0x0000,RO_EX02
[TX] 01 03 11 B0 00 01 80 D1 
[RX] (7 bytes) 01 03 02 00 00 B8 44 
[TX] 01 10 11 B0 00 01 02 00 00 BD 61 
[RX] (5 bytes) 01 90 02 CD C1 
0x11B0,0x0000,RO_EX02
[TX] 01 03 11 B1 00 01 D1 11 
[RX] (7 bytes) 01 03 02 00 00 B8 44 
[TX] 01 10 11 B1 00 01 02 00 00 BC B0 
[RX] (5 bytes) 01 90 02 CD C1 
0x11B1,0x0000,RO_EX02
[TX] 01 03 11 B2 00 01 21 11 
[RX] (7 bytes) 01 03 02 00 00 B8 44 
[TX] 01 10 11 B2 00 01 02 00 00 BC 83 
[RX] (5 bytes) 01 90 02 CD C1 
0x11B2,0x0000,RO_EX02
[TX] 01 03 11 B3 00 01 70 D1 
[RX] (7 bytes) 01 03 02 00 00 B8 44 
[TX] 01 10 11 B3 00 01 02 00 00 BD 52 
[RX] (5 bytes) 01 90 02 CD C1 
0x11B3,0x0000,RO_EX02
[TX] 01 03 11 B4 00 01 C1 10 
[RX] (7 bytes) 01 03 02 00 00 B8 44 
[TX] 01 10 11 B4 00 01 02 00 00 BC E5 
[RX] (5 bytes) 01 90 02 CD C1 
0x11B4,0x0000,RO_EX02
[TX] 01 03 11 B5 00 01 90 D0 
[RX] (7 bytes) 01 03 02 00 00 B8 44 
[TX] 01 10 11 B5 00 01 02 00 00 BD 34 
[RX] (5 bytes) 01 90 02 CD C1 
0x11B5,0x0000,RO_EX02
[TX] 01 03 11 B6 00 01 60 D0 
[RX] (7 bytes) 01 03 02 00 00 B8 44 
[TX] 01 10 11 B6 00 01 02 00 00 BD 07 
[RX] (5 bytes) 01 90 02 CD C1 
0x11B6,0x0000,RO_EX02
[TX] 01 03 11 B7 00 01 31 10 
[RX] (7 bytes) 01 03 02 00 00 B8 44 
[TX] 01 10 11 B7 00 01 02 00 00 BC D6 
[RX] (5 bytes) 01 90 02 CD C1 
0x11B7,0x0000,RO_EX02
[TX] 01 03 11 B8 00 01 01 13 
[RX] (7 bytes) 01 03 02 00 00 B8 44 
[TX] 01 10 11 B8 00 01 02 00 00 BC 29 
[RX] (5 bytes) 01 90 02 CD C1 
0x11B8,0x0000,RO_EX02
[TX] 01 03 11 B9 00 01 50 D3 
[RX] (7 bytes) 01 03 02 00 00 B8 44 
[TX] 01 10 11 B9 00 01 02 00 00 BD F8 
[RX] (5 bytes) 01 90 02 CD C1 
0x11B9,0x0000,RO_EX02
[TX] 01 03 11 BA 00 01 A0 D3 
[RX] (7 bytes) 01 03 02 00 00 B8 44 
[TX] 01 10 11 BA 00 01 02 00 00 BD CB 
[RX] (5 bytes) 01 90 02 CD C1 
0x11BA,0x0000,RO_EX02
[TX] 01 03 11 BB 00 01 F1 13 
[RX] (7 bytes) 01 03 02 00 00 B8 44 
[TX] 01 10 11 BB 00 01 02 00 00 BC 1A 
[RX] (5 bytes) 01 90 02 CD C1 
0x11BB,0x0000,RO_EX02
[TX] 01 03 11 BC 00 01 40 D2 
[RX] (7 bytes) 01 03 02 00 00 B8 44 
[TX] 01 10 11 BC 00 01 02 00 00 BD AD 
[RX] (5 bytes) 01 90 02 CD C1 
0x11BC,0x0000,RO_EX02
[TX] 01 03 11 BD 00 01 11 12 
[RX] (7 bytes) 01 03 02 00 00 B8 44 
[TX] 01 10 11 BD 00 01 02 00 00 BC 7C 
[RX] (5 bytes) 01 90 02 CD C1 
0x11BD,0x0000,RO_EX02
[TX] 01 03 11 BE 00 01 E1 12 
[RX] (7 bytes) 01 03 02 00 00 B8 44 
[TX] 01 10 11 BE 00 01 02 00 00 BC 4F 
[RX] (5 bytes) 01 90 02 CD C1 
0x11BE,0x0000,RO_EX02
[TX] 01 03 11 BF 00 01 B0 D2 
[RX] (7 bytes) 01 03 02 00 00 B8 44 
[TX] 01 10 11 BF 00 01 02 00 00 BD 9E 
[RX] (5 bytes) 01 90 02 CD C1 
0x11BF,0x0000,RO_EX02
[TX] 01 03 11 C0 00 01 81 0A 
[RX] (7 bytes) 01 03 02 00 00 B8 44 
[TX] 01 10 11 C0 00 01 02 00 00 B6 51 
[RX] (5 bytes) 01 90 02 CD C1 
0x11C0,0x0000,RO_EX02
[TX] 01 03 11 C1 00 01 D0 CA 
[RX] (7 bytes) 01 03 02 00 00 B8 44 
[TX] 01 10 11 C1 00 01 02 00 00 B7 80 
[RX] (5 bytes) 01 90 02 CD C1 
0x11C1,0x0000,RO_EX02
[TX] 01 03 11 C2 00 01 20 CA 
[RX] (7 bytes) 01 03 02 00 00 B8 44 
[TX] 01 10 11 C2 00 01 02 00 00 B7 B3 
[RX] (5 bytes) 01 90 02 CD C1 
0x11C2,0x0000,RO_EX02
[TX] 01 03 11 C3 00 01 71 0A 
[RX] (7 bytes) 01 03 02 00 0F F8 40 
[TX] 01 10 11 C3 00 01 02 00 0F F6 66 
[RX] (5 bytes) 01 90 02 CD C1 
0x11C3,0x000F,RO_EX02
[TX] 01 03 11 C4 00 01 C0 CB 
[RX] (7 bytes) 01 03 02 00 00 B8 44 
[TX] 01 10 11 C4 00 01 02 00 00 B7 D5 
[RX] (5 bytes) 01 90 02 CD C1 
0x11C4,0x0000,RO_EX02
[TX] 01 03 11 C5 00 01 91 0B 
[RX] (7 bytes) 01 03 02 00 00 B8 44 
[TX] 01 10 11 C5 00 01 02 00 00 B6 04 
[RX] (5 bytes) 01 90 02 CD C1 
0x11C5,0x0000,RO_EX02
[TX] 01 03 11 C6 00 01 61 0B 
[RX] (7 bytes) 01 03 02 00 00 B8 44 
[TX] 01 10 11 C6 00 01 02 00 00 B6 37 
[RX] (5 bytes) 01 90 02 CD C1 
0x11C6,0x0000,RO_EX02
[TX] 01 03 11 C7 00 01 30 CB 
[RX] (7 bytes) 01 03 02 00 00 B8 44 
[TX] 01 10 11 C7 00 01 02 00 00 B7 E6 
[RX] (5 bytes) 01 90 02 CD C1 
0x11C7,0x0000,RO_EX02
[TX] 01 03 11 C8 00 01 00 C8 
[RX] (7 bytes) 01 03 02 00 00 B8 44 
[TX] 01 10 11 C8 00 01 02 00 00 B7 19 
[RX] (5 bytes) 01 90 02 CD C1 
0x11C8,0x0000,RO_EX02
[TX] 01 03 11 C9 00 01 51 08 
[RX] (7 bytes) 01 03 02 00 00 B8 44 
[TX] 01 10 11 C9 00 01 02 00 00 B6 C8 
[RX] (5 bytes) 01 90 02 CD C1 
0x11C9,0x0000,RO_EX02
[TX] 01 03 11 CA 00 01 A1 08 
[RX] (7 bytes) 01 03 02 00 00 B8 44 
[TX] 01 10 11 CA 00 01 02 00 00 B6 FB 
[RX] (5 bytes) 01 90 02 CD C1 
0x11CA,0x0000,RO_EX02
[TX] 01 03 11 CB 00 01 F0 C8 
[RX] (7 bytes) 01 03 02 00 00 B8 44 
[TX] 01 10 11 CB 00 01 02 00 00 B7 2A 
[RX] (5 bytes) 01 90 02 CD C1 
0x11CB,0x0000,RO_EX02
[TX] 01 03 11 CC 00 01 41 09 
[RX] (7 bytes) 01 03 02 00 00 B8 44 
[TX] 01 10 11 CC 00 01 02 00 00 B6 9D 
[RX] (5 bytes) 01 90 02 CD C1 
0x11CC,0x0000,RO_EX02
[TX] 01 03 11 CD 00 01 10 C9 
[RX] (7 bytes) 01 03 02 00 00 B8 44 
[TX] 01 10 11 CD 00 01 02 00 00 B7 4C 
[RX] (5 bytes) 01 90 02 CD C1 
0x11CD,0x0000,RO_EX02
[TX] 01 03 11 CE 00 01 E0 C9 
[RX] (7 bytes) 01 03 02 00 00 B8 44 
[TX] 01 10 11 CE 00 01 02 00 00 B7 7F 
[RX] (5 bytes) 01 90 02 CD C1 
0x11CE,0x0000,RO_EX02
[TX] 01 03 11 CF 00 01 B1 09 
[RX] (7 bytes) 01 03 02 00 00 B8 44 
[TX] 01 10 11 CF 00 01 02 00 00 B6 AE 
[RX] (5 bytes) 01 90 02 CD C1 
0x11CF,0x0000,RO_EX02
[TX] 01 03 11 D0 00 01 80 CF 
[RX] (7 bytes) 01 03 02 00 00 B8 44 
[TX] 01 10 11 D0 00 01 02 00 00 B4 C1 
[RX] (5 bytes) 01 90 02 CD C1 
0x11D0,0x0000,RO_EX02
[TX] 01 03 11 D1 00 01 D1 0F 
[RX] (7 bytes) 01 03 02 00 00 B8 44 
[TX] 01 10 11 D1 00 01 02 00 00 B5 10 
[RX] (5 bytes) 01 90 02 CD C1 
0x11D1,0x0000,RO_EX02
[TX] 01 03 11 D2 00 01 21 0F 
[RX] (7 bytes) 01 03 02 00 00 B8 44 
[TX] 01 10 11 D2 00 01 02 00 00 B5 23 
[RX] (5 bytes) 01 90 02 CD C1 
0x11D2,0x0000,RO_EX02
[TX] 01 03 11 D3 00 01 70 CF 
[RX] (7 bytes) 01 03 02 00 00 B8 44 
[TX] 01 10 11 D3 00 01 02 00 00 B4 F2 
[RX] (5 bytes) 01 90 02 CD C1 
0x11D3,0x0000,RO_EX02
[TX] 01 03 11 D4 00 01 C1 0E 
[RX] (7 bytes) 01 03 02 00 00 B8 44 
[TX] 01 10 11 D4 00 01 02 00 00 B5 45 
[RX] (5 bytes) 01 90 02 CD C1 
0x11D4,0x0000,RO_EX02
[TX] 01 03 11 D5 00 01 90 CE 
[RX] (7 bytes) 01 03 02 00 00 B8 44 
[TX] 01 10 11 D5 00 01 02 00 00 B4 94 
[RX] (5 bytes) 01 90 02 CD C1 
0x11D5,0x0000,RO_EX02
[TX] 01 03 11 D6 00 01 60 CE 
[RX] (7 bytes) 01 03 02 00 00 B8 44 
[TX] 01 10 11 D6 00 01 02 00 00 B4 A7 
[RX] (5 bytes) 01 90 02 CD C1 
0x11D6,0x0000,RO_EX02
[TX] 01 03 11 D7 00 01 31 0E 
[RX] (7 bytes) 01 03 02 00 00 B8 44 
[TX] 01 10 11 D7 00 01 02 00 00 B5 76 
[RX] (5 bytes) 01 90 02 CD C1 
0x11D7,0x0000,RO_EX02
[TX] 01 03 11 D8 00 01 01 0D 
[RX] (7 bytes) 01 03 02 00 00 B8 44 
[TX] 01 10 11 D8 00 01 02 00 00 B5 89 
[RX] (5 bytes) 01 90 02 CD C1 
0x11D8,0x0000,RO_EX02
[TX] 01 03 11 D9 00 01 50 CD 
[RX] (7 bytes) 01 03 02 00 00 B8 44 
[TX] 01 10 11 D9 00 01 02 00 00 B4 58 
[RX] (5 bytes) 01 90 02 CD C1 
0x11D9,0x0000,RO_EX02
[TX] 01 03 11 DA 00 01 A0 CD 
[RX] (7 bytes) 01 03 02 00 00 B8 44 
[TX] 01 10 11 DA 00 01 02 00 00 B4 6B 
[RX] (5 bytes) 01 90 02 CD C1 
0x11DA,0x0000,RO_EX02
[TX] 01 03 11 DB 00 01 F1 0D 
[RX] (7 bytes) 01 03 02 00 00 B8 44 
[TX] 01 10 11 DB 00 01 02 00 00 B5 BA 
[RX] (5 bytes) 01 90 02 CD C1 
0x11DB,0x0000,RO_EX02
[TX] 01 03 11 DC 00 01 40 CC 
[RX] (7 bytes) 01 03 02 00 00 B8 44 
[TX] 01 10 11 DC 00 01 02 00 00 B4 0D 
[RX] (5 bytes) 01 90 02 CD C1 
0x11DC,0x0000,RO_EX02
[TX] 01 03 11 DD 00 01 11 0C 
[RX] (7 bytes) 01 03 02 00 00 B8 44 
[TX] 01 10 11 DD 00 01 02 00 00 B5 DC 
[RX] (5 bytes) 01 90 02 CD C1 
0x11DD,0x0000,RO_EX02
[TX] 01 03 11 DE 00 01 E1 0C 
[RX] (7 bytes) 01 03 02 00 00 B8 44 
[TX] 01 10 11 DE 00 01 02 00 00 B5 EF 
[RX] (5 bytes) 01 90 02 CD C1 
0x11DE,0x0000,RO_EX02
[TX] 01 03 11 DF 00 01 B0 CC 
[RX] (7 bytes) 01 03 02 00 00 B8 44 
[TX] 01 10 11 DF 00 01 02 00 00 B4 3E 
[RX] (5 bytes) 01 90 02 CD C1 
0x11DF,0x0000,RO_EX02
[TX] 01 03 11 E0 00 01 80 C0 
[RX] (7 bytes) 01 03 02 00 00 B8 44 
[TX] 01 10 11 E0 00 01 02 00 00 B1 31 
[RX] (5 bytes) 01 90 02 CD C1 
0x11E0,0x0000,RO_EX02
[TX] 01 03 11 E1 00 01 D1 00 
[RX] (7 bytes) 01 03 02 00 00 B8 44 
[TX] 01 10 11 E1 00 01 02 00 00 B0 E0 
[RX] (5 bytes) 01 90 02 CD C1 
0x11E1,0x0000,RO_EX02
[TX] 01 03 11 E2 00 01 21 00 
[RX] (7 bytes) 01 03 02 00 00 B8 44 
[TX] 01 10 11 E2 00 01 02 00 00 B0 D3 
[RX] (5 bytes) 01 90 02 CD C1 
0x11E2,0x0000,RO_EX02
[TX] 01 03 11 E3 00 01 70 C0 
[RX] (7 bytes) 01 03 02 00 00 B8 44 
[TX] 01 10 11 E3 00 01 02 00 00 B1 02 
[RX] (5 bytes) 01 90 02 CD C1 
0x11E3,0x0000,RO_EX02
[TX] 01 03 11 E4 00 01 C1 01 
[RX] (7 bytes) 01 03 02 00 00 B8 44 
[TX] 01 10 11 E4 00 01 02 00 00 B0 B5 
[RX] (5 bytes) 01 90 02 CD C1 
0x11E4,0x0000,RO_EX02
[TX] 01 03 11 E5 00 01 90 C1 
[RX] (7 bytes) 01 03 02 00 00 B8 44 
[TX] 01 10 11 E5 00 01 02 00 00 B1 64 
[RX] (5 bytes) 01 90 02 CD C1 
0x11E5,0x0000,RO_EX02
[TX] 01 03 11 E6 00 01 60 C1 
[RX] (7 bytes) 01 03 02 00 00 B8 44 
[TX] 01 10 11 E6 00 01 02 00 00 B1 57 
[RX] (5 bytes) 01 90 02 CD C1 
0x11E6,0x0000,RO_EX02
[TX] 01 03 11 E7 00 01 31 01 
[RX] (7 bytes) 01 03 02 00 00 B8 44 
[TX] 01 10 11 E7 00 01 02 00 00 B0 86 
[RX] (5 bytes) 01 90 02 CD C1 
0x11E7,0x0000,RO_EX02
[TX] 01 03 11 E8 00 01 01 02 
[RX] (7 bytes) 01 03 02 00 00 B8 44 
[TX] 01 10 11 E8 00 01 02 00 00 B0 79 
[RX] (5 bytes) 01 90 02 CD C1 
0x11E8,0x0000,RO_EX02
[TX] 01 03 11 E9 00 01 50 C2 
[RX] (7 bytes) 01 03 02 00 00 B8 44 
[TX] 01 10 11 E9 00 01 02 00 00 B1 A8 
[RX] (5 bytes) 01 90 02 CD C1 
0x11E9,0x0000,RO_EX02
[TX] 01 03 11 EA 00 01 A0 C2 
[RX] (7 bytes) 01 03 02 00 00 B8 44 
[TX] 01 10 11 EA 00 01 02 00 00 B1 9B 
[RX] (5 bytes) 01 90 02 CD C1 
0x11EA,0x0000,RO_EX02
[TX] 01 03 11 EB 00 01 F1 02 
[RX] (7 bytes) 01 03 02 00 00 B8 44 
[TX] 01 10 11 EB 00 01 02 00 00 B0 4A 
[RX] (5 bytes) 01 90 02 CD C1 
0x11EB,0x0000,RO_EX02
[TX] 01 03 11 EC 00 01 40 C3 
[RX] (7 bytes) 01 03 02 00 00 B8 44 
[TX] 01 10 11 EC 00 01 02 00 00 B1 FD 
[RX] (5 bytes) 01 90 02 CD C1 
0x11EC,0x0000,RO_EX02
[TX] 01 03 11 ED 00 01 11 03 
[RX] (7 bytes) 01 03 02 00 00 B8 44 
[TX] 01 10 11 ED 00 01 02 00 00 B0 2C 
[RX] (5 bytes) 01 90 02 CD C1 
0x11ED,0x0000,RO_EX02
[TX] 01 03 11 EE 00 01 E1 03 
[RX] (7 bytes) 01 03 02 00 00 B8 44 
[TX] 01 10 11 EE 00 01 02 00 00 B0 1F 
[RX] (5 bytes) 01 90 02 CD C1 
0x11EE,0x0000,RO_EX02
[TX] 01 03 11 EF 00 01 B0 C3 
[RX] (7 bytes) 01 03 02 00 00 B8 44 
[TX] 01 10 11 EF 00 01 02 00 00 B1 CE 
[RX] (5 bytes) 01 90 02 CD C1 
0x11EF,0x0000,RO_EX02
[TX] 01 03 11 F0 00 01 81 05 
[RX] (7 bytes) 01 03 02 00 00 B8 44 
[TX] 01 10 11 F0 00 01 02 00 00 B3 A1 
[RX] (5 bytes) 01 90 02 CD C1 
0x11F0,0x0000,RO_EX02
[TX] 01 03 11 F1 00 01 D0 C5 
[RX] (7 bytes) 01 03 02 00 00 B8 44 
[TX] 01 10 11 F1 00 01 02 00 00 B2 70 
[RX] (5 bytes) 01 90 02 CD C1 
0x11F1,0x0000,RO_EX02
[TX] 01 03 11 F2 00 01 20 C5 
[RX] (7 bytes) 01 03 02 00 00 B8 44 
[TX] 01 10 11 F2 00 01 02 00 00 B2 43 
[RX] (5 bytes) 01 90 02 CD C1 
0x11F2,0x0000,RO_EX02
[TX] 01 03 11 F3 00 01 71 05 
[RX] (7 bytes) 01 03 02 00 00 B8 44 
[TX] 01 10 11 F3 00 01 02 00 00 B3 92 
[RX] (5 bytes) 01 90 02 CD C1 
0x11F3,0x0000,RO_EX02
[TX] 01 03 11 F4 00 01 C0 C4 
[RX] (7 bytes) 01 03 02 00 00 B8 44 
[TX] 01 10 11 F4 00 01 02 00 00 B2 25 
[RX] (5 bytes) 01 90 02 CD C1 
0x11F4,0x0000,RO_EX02
[TX] 01 03 11 F5 00 01 91 04 
[RX] (7 bytes) 01 03 02 00 00 B8 44 
[TX] 01 10 11 F5 00 01 02 00 00 B3 F4 
[RX] (5 bytes) 01 90 02 CD C1 
0x11F5,0x0000,RO_EX02
[TX] 01 03 11 F6 00 01 61 04 
[RX] (7 bytes) 01 03 02 00 00 B8 44 
[TX] 01 10 11 F6 00 01 02 00 00 B3 C7 
[RX] (5 bytes) 01 90 02 CD C1 
0x11F6,0x0000,RO_EX02
[TX] 01 03 11 F7 00 01 30 C4 
[RX] (7 bytes) 01 03 02 00 00 B8 44 
[TX] 01 10 11 F7 00 01 02 00 00 B2 16 
[RX] (5 bytes) 01 90 02 CD C1 
0x11F7,0x0000,RO_EX02
[TX] 01 03 11 F8 00 01 00 C7 
[RX] (7 bytes) 01 03 02 00 00 B8 44 
[TX] 01 10 11 F8 00 01 02 00 00 B2 E9 
[RX] (5 bytes) 01 90 02 CD C1 
0x11F8,0x0000,RO_EX02
[TX] 01 03 11 F9 00 01 51 07 
[RX] (7 bytes) 01 03 02 00 00 B8 44 
[TX] 01 10 11 F9 00 01 02 00 00 B3 38 
[RX] (5 bytes) 01 90 02 CD C1 
0x11F9,0x0000,RO_EX02
[TX] 01 03 11 FA 00 01 A1 07 
[RX] (7 bytes) 01 03 02 00 00 B8 44 
[TX] 01 10 11 FA 00 01 02 00 00 B3 0B 
[RX] (5 bytes) 01 90 02 CD C1 
0x11FA,0x0000,RO_EX02
[TX] 01 03 11 FB 00 01 F0 C7 
[RX] (7 bytes) 01 03 02 00 00 B8 44 
[TX] 01 10 11 FB 00 01 02 00 00 B2 DA 
[RX] (5 bytes) 01 90 02 CD C1 
0x11FB,0x0000,RO_EX02
[TX] 01 03 11 FC 00 01 41 06 
[RX] (7 bytes) 01 03 02 00 00 B8 44 
[TX] 01 10 11 FC 00 01 02 00 00 B3 6D 
[RX] (5 bytes) 01 90 02 CD C1 
0x11FC,0x0000,RO_EX02
[TX] 01 03 11 FD 00 01 10 C6 
[RX] (7 bytes) 01 03 02 00 00 B8 44 
[TX] 01 10 11 FD 00 01 02 00 00 B2 BC 
[RX] (5 bytes) 01 90 02 CD C1 
0x11FD,0x0000,RO_EX02
[TX] 01 03 11 FE 00 01 E0 C6 
[RX] (7 bytes) 01 03 02 00 00 B8 44 
[TX] 01 10 11 FE 00 01 02 00 00 B2 8F 
[RX] (5 bytes) 01 90 02 CD C1 
0x11FE,0x0000,RO_EX02
[TX] 01 03 11 FF 00 01 B1 06 
[RX] (7 bytes) 01 03 02 00 00 B8 44 
[TX] 01 10 11 FF 00 01 02 00 00 B3 5E 
[RX] (5 bytes) 01 90 02 CD C1 
0x11FF,0x0000,RO_EX02
[TX] 01 03 12 00 00 01 81 72 
[RX] (5 bytes) 01 83 02 C0 F1 
[MODBUS] Exception: 0x02 (Gecersiz adres)
[TX] 01 03 12 01 00 01 D0 B2 
[RX] (5 bytes) 01 83 02 C0 F1 
[MODBUS] Exception: 0x02 (Gecersiz adres)
[TX] 01 03 12 02 00 01 20 B2 
[RX] (5 bytes) 01 83 02 C0 F1 
[MODBUS] Exception: 0x02 (Gecersiz adres)
[TX] 01 03 12 03 00 01 71 72 
[RX] (5 bytes) 01 83 02 C0 F1 
[MODBUS] Exception: 0x02 (Gecersiz adres)
[TX] 01 03 12 04 00 01 C0 B3 
[RX] (5 bytes) 01 83 02 C0 F1 
[MODBUS] Exception: 0x02 (Gecersiz adres)
[TX] 01 03 12 05 00 01 91 73 
[RX] (5 bytes) 01 83 02 C0 F1 
[MODBUS] Exception: 0x02 (Gecersiz adres)
[TX] 01 03 12 06 00 01 61 73 
[RX] (5 bytes) 01 83 02 C0 F1 
[MODBUS] Exception: 0x02 (Gecersiz adres)
[TX] 01 03 12 07 00 01 30 B3 
[RX] (5 bytes) 01 83 02 C0 F1 
[MODBUS] Exception: 0x02 (Gecersiz adres)
[TX] 01 03 12 08 00 01 00 B0 
[RX] (5 bytes) 01 83 02 C0 F1 
[MODBUS] Exception: 0x02 (Gecersiz adres)
[TX] 01 03 12 09 00 01 51 70 
[RX] (5 bytes) 01 83 02 C0 F1 
[MODBUS] Exception: 0x02 (Gecersiz adres)
[TX] 01 03 12 0A 00 01 A1 70 
[RX] (5 bytes) 01 83 02 C0 F1 
[MODBUS] Exception: 0x02 (Gecersiz adres)
[TX] 01 03 12 0B 00 01 F0 B0 
[RX] (5 bytes) 01 83 02 C0 F1 
[MODBUS] Exception: 0x02 (Gecersiz adres)
[TX] 01 03 12 0C 00 01 41 71 
[RX] (5 bytes) 01 83 02 C0 F1 
[MODBUS] Exception: 0x02 (Gecersiz adres)
[TX] 01 03 12 0D 00 01 10 B1 
[RX] (5 bytes) 01 83 02 C0 F1 
[MODBUS] Exception: 0x02 (Gecersiz adres)
[TX] 01 03 12 0E 00 01 E0 B1 
[RX] (5 bytes) 01 83 02 C0 F1 
[MODBUS] Exception: 0x02 (Gecersiz adres)
[TX] 01 03 12 0F 00 01 B1 71 
[RX] (5 bytes) 01 83 02 C0 F1 
[MODBUS] Exception: 0x02 (Gecersiz adres)
[TX] 01 03 12 10 00 01 80 B7 
[RX] (5 bytes) 01 83 02 C0 F1 
[MODBUS] Exception: 0x02 (Gecersiz adres)
[TX] 01 03 12 11 00 01 D1 77 
[RX] (5 bytes) 01 83 02 C0 F1 
[MODBUS] Exception: 0x02 (Gecersiz adres)
[TX] 01 03 12 12 00 01 21 77 
[RX] (5 bytes) 01 83 02 C0 F1 
[MODBUS] Exception: 0x02 (Gecersiz adres)
[TX] 01 03 12 13 00 01 70 B7 
[RX] (5 bytes) 01 83 02 C0 F1 
[MODBUS] Exception: 0x02 (Gecersiz adres)
[TX] 01 03 12 14 00 01 C1 76 
[RX] (5 bytes) 01 83 02 C0 F1 
[MODBUS] Exception: 0x02 (Gecersiz adres)
[TX] 01 03 12 15 00 01 90 B6 
[RX] (5 bytes) 01 83 02 C0 F1 
[MODBUS] Exception: 0x02 (Gecersiz adres)
[TX] 01 03 12 16 00 01 60 B6 
[RX] (5 bytes) 01 83 02 C0 F1 
[MODBUS] Exception: 0x02 (Gecersiz adres)
[TX] 01 03 12 17 00 01 31 76 
[RX] (5 bytes) 01 83 02 C0 F1 
[MODBUS] Exception: 0x02 (Gecersiz adres)
[TX] 01 03 12 18 00 01 01 75 
[RX] (5 bytes) 01 83 02 C0 F1 
[MODBUS] Exception: 0x02 (Gecersiz adres)
[TX] 01 03 12 19 00 01 50 B5 
[RX] (5 bytes) 01 83 02 C0 F1 
[MODBUS] Exception: 0x02 (Gecersiz adres)
[TX] 01 03 12 1A 00 01 A0 B5 
[RX] (5 bytes) 01 83 02 C0 F1 
[MODBUS] Exception: 0x02 (Gecersiz adres)
[TX] 01 03 12 1B 00 01 F1 75 
[RX] (5 bytes) 01 83 02 C0 F1 
[MODBUS] Exception: 0x02 (Gecersiz adres)
[TX] 01 03 12 1C 00 01 40 B4 
[RX] (5 bytes) 01 83 02 C0 F1 
[MODBUS] Exception: 0x02 (Gecersiz adres)
[TX] 01 03 12 1D 00 01 11 74 
[RX] (5 bytes) 01 83 02 C0 F1 
[MODBUS] Exception: 0x02 (Gecersiz adres)
[TX] 01 03 12 1E 00 01 E1 74 
[RX] (5 bytes) 01 83 02 C0 F1 
[MODBUS] Exception: 0x02 (Gecersiz adres)
[TX] 01 03 12 1F 00 01 B0 B4 
[RX] (5 bytes) 01 83 02 C0 F1 
[MODBUS] Exception: 0x02 (Gecersiz adres)
[TX] 01 03 12 20 00 01 80 B8 
[RX] (5 bytes) 01 83 02 C0 F1 
[MODBUS] Exception: 0x02 (Gecersiz adres)
[TX] 01 03 12 21 00 01 D1 78 
[RX] (5 bytes) 01 83 02 C0 F1 
[MODBUS] Exception: 0x02 (Gecersiz adres)
[TX] 01 03 12 22 00 01 21 78 
[RX] (5 bytes) 01 83 02 C0 F1 
[MODBUS] Exception: 0x02 (Gecersiz adres)
[TX] 01 03 12 23 00 01 70 B8 
[RX] (5 bytes) 01 83 02 C0 F1 
[MODBUS] Exception: 0x02 (Gecersiz adres)
[TX] 01 03 12 24 00 01 C1 79 
[RX] (5 bytes) 01 83 02 C0 F1 
[MODBUS] Exception: 0x02 (Gecersiz adres)
[TX] 01 03 12 25 00 01 90 B9 
[RX] (5 bytes) 01 83 02 C0 F1 
[MODBUS] Exception: 0x02 (Gecersiz adres)
[TX] 01 03 12 26 00 01 60 B9 
[RX] (5 bytes) 01 83 02 C0 F1 
[MODBUS] Exception: 0x02 (Gecersiz adres)
[TX] 01 03 12 27 00 01 31 79 
[RX] (5 bytes) 01 83 02 C0 F1 
[MODBUS] Exception: 0x02 (Gecersiz adres)
[TX] 01 03 12 28 00 01 01 7A 
[RX] (5 bytes) 01 83 02 C0 F1 
[MODBUS] Exception: 0x02 (Gecersiz adres)
[TX] 01 03 12 29 00 01 50 BA 
[RX] (5 bytes) 01 83 02 C0 F1 
[MODBUS] Exception: 0x02 (Gecersiz adres)
[TX] 01 03 12 2A 00 01 A0 BA 
[RX] (5 bytes) 01 83 02 C0 F1 
[MODBUS] Exception: 0x02 (Gecersiz adres)
[TX] 01 03 12 2B 00 01 F1 7A 
[RX] (5 bytes) 01 83 02 C0 F1 
[MODBUS] Exception: 0x02 (Gecersiz adres)
[TX] 01 03 12 2C 00 01 40 BB 
[RX] (5 bytes) 01 83 02 C0 F1 
[MODBUS] Exception: 0x02 (Gecersiz adres)
[TX] 01 03 12 2D 00 01 11 7B 
[RX] (5 bytes) 01 83 02 C0 F1 
[MODBUS] Exception: 0x02 (Gecersiz adres)
[TX] 01 03 12 2E 00 01 E1 7B 
[RX] (5 bytes) 01 83 02 C0 F1 
[MODBUS] Exception: 0x02 (Gecersiz adres)
[TX] 01 03 12 2F 00 01 B0 BB 
[RX] (5 bytes) 01 83 02 C0 F1 
[MODBUS] Exception: 0x02 (Gecersiz adres)
[TX] 01 03 12 30 00 01 81 7D 
[RX] (5 bytes) 01 83 02 C0 F1 
[MODBUS] Exception: 0x02 (Gecersiz adres)
[TX] 01 03 12 31 00 01 D0 BD 
[RX] (5 bytes) 01 83 02 C0 F1 
[MODBUS] Exception: 0x02 (Gecersiz adres)
[TX] 01 03 12 32 00 01 20 BD 
[RX] (5 bytes) 01 83 02 C0 F1 
[MODBUS] Exception: 0x02 (Gecersiz adres)
[TX] 01 03 12 33 00 01 71 7D 
[RX] (5 bytes) 01 83 02 C0 F1 
[MODBUS] Exception: 0x02 (Gecersiz adres)
[TX] 01 03 12 34 00 01 C0 BC 
[RX] (5 bytes) 01 83 02 C0 F1 
[MODBUS] Exception: 0x02 (Gecersiz adres)
[TX] 01 03 12 35 00 01 91 7C 
[RX] (5 bytes) 01 83 02 C0 F1 
[MODBUS] Exception: 0x02 (Gecersiz adres)
[TX] 01 03 12 36 00 01 61 7C 
[RX] (5 bytes) 01 83 02 C0 F1 
[MODBUS] Exception: 0x02 (Gecersiz adres)
[TX] 01 03 12 37 00 01 30 BC 
[RX] (5 bytes) 01 83 02 C0 F1 
[MODBUS] Exception: 0x02 (Gecersiz adres)
[TX] 01 03 12 38 00 01 00 BF 
[RX] (5 bytes) 01 83 02 C0 F1 
[MODBUS] Exception: 0x02 (Gecersiz adres)
[TX] 01 03 12 39 00 01 51 7F 
[RX] (5 bytes) 01 83 02 C0 F1 
[MODBUS] Exception: 0x02 (Gecersiz adres)
[TX] 01 03 12 3A 00 01 A1 7F 
[RX] (5 bytes) 01 83 02 C0 F1 
[MODBUS] Exception: 0x02 (Gecersiz adres)
[TX] 01 03 12 3B 00 01 F0 BF 
[RX] (5 bytes) 01 83 02 C0 F1 
[MODBUS] Exception: 0x02 (Gecersiz adres)
[TX] 01 03 12 3C 00 01 41 7E 
[RX] (5 bytes) 01 83 02 C0 F1 
[MODBUS] Exception: 0x02 (Gecersiz adres)
[TX] 01 03 12 3D 00 01 10 BE 
[RX] (5 bytes) 01 83 02 C0 F1 
[MODBUS] Exception: 0x02 (Gecersiz adres)
[TX] 01 03 12 3E 00 01 E0 BE 
[RX] (5 bytes) 01 83 02 C0 F1 
[MODBUS] Exception: 0x02 (Gecersiz adres)
[TX] 01 03 12 3F 00 01 B1 7E 
[RX] (5 bytes) 01 83 02 C0 F1 
[MODBUS] Exception: 0x02 (Gecersiz adres)
[TX] 01 03 12 40 00 01 80 A6 
[RX] (5 bytes) 01 83 02 C0 F1 
[MODBUS] Exception: 0x02 (Gecersiz adres)
[TX] 01 03 12 41 00 01 D1 66 
[RX] (5 bytes) 01 83 02 C0 F1 
[MODBUS] Exception: 0x02 (Gecersiz adres)
[TX] 01 03 12 42 00 01 21 66 
[RX] (5 bytes) 01 83 02 C0 F1 
[MODBUS] Exception: 0x02 (Gecersiz adres)
[TX] 01 03 12 43 00 01 70 A6 
[RX] (5 bytes) 01 83 02 C0 F1 
[MODBUS] Exception: 0x02 (Gecersiz adres)
[TX] 01 03 12 44 00 01 C1 67 
[RX] (5 bytes) 01 83 02 C0 F1 
[MODBUS] Exception: 0x02 (Gecersiz adres)
[TX] 01 03 12 45 00 01 90 A7 
[RX] (5 bytes) 01 83 02 C0 F1 
[MODBUS] Exception: 0x02 (Gecersiz adres)
[TX] 01 03 12 46 00 01 60 A7 
[RX] (5 bytes) 01 83 02 C0 F1 
[MODBUS] Exception: 0x02 (Gecersiz adres)
[TX] 01 03 12 47 00 01 31 67 
[RX] (5 bytes) 01 83 02 C0 F1 
[MODBUS] Exception: 0x02 (Gecersiz adres)
[TX] 01 03 12 48 00 01 01 64 
[RX] (5 bytes) 01 83 02 C0 F1 
[MODBUS] Exception: 0x02 (Gecersiz adres)
[TX] 01 03 12 49 00 01 50 A4 
[RX] (5 bytes) 01 83 02 C0 F1 
[MODBUS] Exception: 0x02 (Gecersiz adres)
[TX] 01 03 12 4A 00 01 A0 A4 
[RX] (5 bytes) 01 83 02 C0 F1 
[MODBUS] Exception: 0x02 (Gecersiz adres)
[TX] 01 03 12 4B 00 01 F1 64 
[RX] (5 bytes) 01 83 02 C0 F1 
[MODBUS] Exception: 0x02 (Gecersiz adres)
[TX] 01 03 12 4C 00 01 40 A5 
[RX] (5 bytes) 01 83 02 C0 F1 
[MODBUS] Exception: 0x02 (Gecersiz adres)
[TX] 01 03 12 4D 00 01 11 65 
[RX] (5 bytes) 01 83 02 C0 F1 
[MODBUS] Exception: 0x02 (Gecersiz adres)
[TX] 01 03 12 4E 00 01 E1 65 
[RX] (5 bytes) 01 83 02 C0 F1 
[MODBUS] Exception: 0x02 (Gecersiz adres)
[TX] 01 03 12 4F 00 01 B0 A5 
[RX] (5 bytes) 01 83 02 C0 F1 
[MODBUS] Exception: 0x02 (Gecersiz adres)
[TX] 01 03 12 50 00 01 81 63 
[RX] (5 bytes) 01 83 02 C0 F1 
[MODBUS] Exception: 0x02 (Gecersiz adres)
[TX] 01 03 12 51 00 01 D0 A3 
[RX] (5 bytes) 01 83 02 C0 F1 
[MODBUS] Exception: 0x02 (Gecersiz adres)
[TX] 01 03 12 52 00 01 20 A3 
[RX] (5 bytes) 01 83 02 C0 F1 
[MODBUS] Exception: 0x02 (Gecersiz adres)
[TX] 01 03 12 53 00 01 71 63 
[RX] (5 bytes) 01 83 02 C0 F1 
[MODBUS] Exception: 0x02 (Gecersiz adres)
[TX] 01 03 12 54 00 01 C0 A2 
[RX] (5 bytes) 01 83 02 C0 F1 
[MODBUS] Exception: 0x02 (Gecersiz adres)
[TX] 01 03 12 55 00 01 91 62 
[RX] (5 bytes) 01 83 02 C0 F1 
[MODBUS] Exception: 0x02 (Gecersiz adres)
[TX] 01 03 12 56 00 01 61 62 
[RX] (5 bytes) 01 83 02 C0 F1 
[MODBUS] Exception: 0x02 (Gecersiz adres)
[TX] 01 03 12 57 00 01 30 A2 
[RX] (5 bytes) 01 83 02 C0 F1 
[MODBUS] Exception: 0x02 (Gecersiz adres)
[TX] 01 03 12 58 00 01 00 A1 
[RX] (5 bytes) 01 83 02 C0 F1 
[MODBUS] Exception: 0x02 (Gecersiz adres)
[TX] 01 03 12 59 00 01 51 61 
[RX] (5 bytes) 01 83 02 C0 F1 
[MODBUS] Exception: 0x02 (Gecersiz adres)
[TX] 01 03 12 5A 00 01 A1 61 
[RX] (5 bytes) 01 83 02 C0 F1 
[MODBUS] Exception: 0x02 (Gecersiz adres)
[TX] 01 03 12 5B 00 01 F0 A1 
[RX] (5 bytes) 01 83 02 C0 F1 
[MODBUS] Exception: 0x02 (Gecersiz adres)
[TX] 01 03 12 5C 00 01 41 60 
[RX] (5 bytes) 01 83 02 C0 F1 
[MODBUS] Exception: 0x02 (Gecersiz adres)
[TX] 01 03 12 5D 00 01 10 A0 
[RX] (5 bytes) 01 83 02 C0 F1 
[MODBUS] Exception: 0x02 (Gecersiz adres)
[TX] 01 03 12 5E 00 01 E0 A0 
[RX] (5 bytes) 01 83 02 C0 F1 
[MODBUS] Exception: 0x02 (Gecersiz adres)
[TX] 01 03 12 5F 00 01 B1 60 
[RX] (5 bytes) 01 83 02 C0 F1 
[MODBUS] Exception: 0x02 (Gecersiz adres)
[TX] 01 03 12 60 00 01 81 6C 
[RX] (5 bytes) 01 83 02 C0 F1 
[MODBUS] Exception: 0x02 (Gecersiz adres)
[TX] 01 03 12 61 00 01 D0 AC 
[RX] (5 bytes) 01 83 02 C0 F1 
[MODBUS] Exception: 0x02 (Gecersiz adres)
[TX] 01 03 12 62 00 01 20 AC 
[RX] (5 bytes) 01 83 02 C0 F1 
[MODBUS] Exception: 0x02 (Gecersiz adres)
[TX] 01 03 12 63 00 01 71 6C 
[RX] (5 bytes) 01 83 02 C0 F1 
[MODBUS] Exception: 0x02 (Gecersiz adres)
[TX] 01 03 12 64 00 01 C0 AD 
[RX] (5 bytes) 01 83 02 C0 F1 
[MODBUS] Exception: 0x02 (Gecersiz adres)
[TX] 01 03 12 65 00 01 91 6D 
[RX] (5 bytes) 01 83 02 C0 F1 
[MODBUS] Exception: 0x02 (Gecersiz adres)
[TX] 01 03 12 66 00 01 61 6D 
[RX] (5 bytes) 01 83 02 C0 F1 
[MODBUS] Exception: 0x02 (Gecersiz adres)
[TX] 01 03 12 67 00 01 30 AD 
[RX] (5 bytes) 01 83 02 C0 F1 
[MODBUS] Exception: 0x02 (Gecersiz adres)
[TX] 01 03 12 68 00 01 00 AE 
[RX] (5 bytes) 01 83 02 C0 F1 
[MODBUS] Exception: 0x02 (Gecersiz adres)
[TX] 01 03 12 69 00 01 51 6E 
[RX] (5 bytes) 01 83 02 C0 F1 
[MODBUS] Exception: 0x02 (Gecersiz adres)
[TX] 01 03 12 6A 00 01 A1 6E 
[RX] (5 bytes) 01 83 02 C0 F1 
[MODBUS] Exception: 0x02 (Gecersiz adres)
[TX] 01 03 12 6B 00 01 F0 AE 
[RX] (5 bytes) 01 83 02 C0 F1 
[MODBUS] Exception: 0x02 (Gecersiz adres)
[TX] 01 03 12 6C 00 01 41 6F 
[RX] (5 bytes) 01 83 02 C0 F1 
[MODBUS] Exception: 0x02 (Gecersiz adres)
[TX] 01 03 12 6D 00 01 10 AF 
[RX] (5 bytes) 01 83 02 C0 F1 
[MODBUS] Exception: 0x02 (Gecersiz adres)
[TX] 01 03 12 6E 00 01 E0 AF 
[RX] (5 bytes) 01 83 02 C0 F1 
[MODBUS] Exception: 0x02 (Gecersiz adres)
[TX] 01 03 12 6F 00 01 B1 6F 
[RX] (5 bytes) 01 83 02 C0 F1 
[MODBUS] Exception: 0x02 (Gecersiz adres)
[TX] 01 03 12 70 00 01 80 A9 
[RX] (5 bytes) 01 83 02 C0 F1 
[MODBUS] Exception: 0x02 (Gecersiz adres)
[TX] 01 03 12 71 00 01 D1 69 
[RX] (5 bytes) 01 83 02 C0 F1 
[MODBUS] Exception: 0x02 (Gecersiz adres)
[TX] 01 03 12 72 00 01 21 69 
[RX] (5 bytes) 01 83 02 C0 F1 
[MODBUS] Exception: 0x02 (Gecersiz adres)
[TX] 01 03 12 73 00 01 70 A9 
[RX] (5 bytes) 01 83 02 C0 F1 
[MODBUS] Exception: 0x02 (Gecersiz adres)
[TX] 01 03 12 74 00 01 C1 68 
[RX] (5 bytes) 01 83 02 C0 F1 
[MODBUS] Exception: 0x02 (Gecersiz adres)
[TX] 01 03 12 75 00 01 90 A8 
[RX] (5 bytes) 01 83 02 C0 F1 
[MODBUS] Exception: 0x02 (Gecersiz adres)
[TX] 01 03 12 76 00 01 60 A8 
[RX] (5 bytes) 01 83 02 C0 F1 
[MODBUS] Exception: 0x02 (Gecersiz adres)
[TX] 01 03 12 77 00 01 31 68 
[RX] (5 bytes) 01 83 02 C0 F1 
[MODBUS] Exception: 0x02 (Gecersiz adres)
[TX] 01 03 12 78 00 01 01 6B 
[RX] (5 bytes) 01 83 02 C0 F1 
[MODBUS] Exception: 0x02 (Gecersiz adres)
[TX] 01 03 12 79 00 01 50 AB 
[RX] (5 bytes) 01 83 02 C0 F1 
[MODBUS] Exception: 0x02 (Gecersiz adres)
[TX] 01 03 12 7A 00 01 A0 AB 
[RX] (5 bytes) 01 83 02 C0 F1 
[MODBUS] Exception: 0x02 (Gecersiz adres)
[TX] 01 03 12 7B 00 01 F1 6B 
[RX] (5 bytes) 01 83 02 C0 F1 
[MODBUS] Exception: 0x02 (Gecersiz adres)
[TX] 01 03 12 7C 00 01 40 AA 
[RX] (5 bytes) 01 83 02 C0 F1 
[MODBUS] Exception: 0x02 (Gecersiz adres)
[TX] 01 03 12 7D 00 01 11 6A 
[RX] (5 bytes) 01 83 02 C0 F1 
[MODBUS] Exception: 0x02 (Gecersiz adres)
[TX] 01 03 12 7E 00 01 E1 6A 
[RX] (5 bytes) 01 83 02 C0 F1 
[MODBUS] Exception: 0x02 (Gecersiz adres)
[TX] 01 03 12 7F 00 01 B0 AA 
[RX] (5 bytes) 01 83 02 C0 F1 
[MODBUS] Exception: 0x02 (Gecersiz adres)
[TX] 01 03 12 80 00 01 80 9A 
[RX] (5 bytes) 01 83 02 C0 F1 
[MODBUS] Exception: 0x02 (Gecersiz adres)
[TX] 01 03 12 81 00 01 D1 5A 
[RX] (5 bytes) 01 83 02 C0 F1 
[MODBUS] Exception: 0x02 (Gecersiz adres)
[TX] 01 03 12 82 00 01 21 5A 
[RX] (5 bytes) 01 83 02 C0 F1 
[MODBUS] Exception: 0x02 (Gecersiz adres)
[TX] 01 03 12 83 00 01 70 9A 
[RX] (5 bytes) 01 83 02 C0 F1 
[MODBUS] Exception: 0x02 (Gecersiz adres)
[TX] 01 03 12 84 00 01 C1 5B 
[RX] (5 bytes) 01 83 02 C0 F1 
[MODBUS] Exception: 0x02 (Gecersiz adres)
[TX] 01 03 12 85 00 01 90 9B 
[RX] (5 bytes) 01 83 02 C0 F1 
[MODBUS] Exception: 0x02 (Gecersiz adres)
[TX] 01 03 12 86 00 01 60 9B 
[RX] (5 bytes) 01 83 02 C0 F1 
[MODBUS] Exception: 0x02 (Gecersiz adres)
[TX] 01 03 12 87 00 01 31 5B 
[RX] (5 bytes) 01 83 02 C0 F1 
[MODBUS] Exception: 0x02 (Gecersiz adres)
[TX] 01 03 12 88 00 01 01 58 
[RX] (5 bytes) 01 83 02 C0 F1 
[MODBUS] Exception: 0x02 (Gecersiz adres)
[TX] 01 03 12 89 00 01 50 98 
[RX] (5 bytes) 01 83 02 C0 F1 
[MODBUS] Exception: 0x02 (Gecersiz adres)
[TX] 01 03 12 8A 00 01 A0 98 
[RX] (5 bytes) 01 83 02 C0 F1 
[MODBUS] Exception: 0x02 (Gecersiz adres)
[TX] 01 03 12 8B 00 01 F1 58 
[RX] (5 bytes) 01 83 02 C0 F1 
[MODBUS] Exception: 0x02 (Gecersiz adres)
[TX] 01 03 12 8C 00 01 40 99 
[RX] (5 bytes) 01 83 02 C0 F1 
[MODBUS] Exception: 0x02 (Gecersiz adres)
[TX] 01 03 12 8D 00 01 11 59 
[RX] (5 bytes) 01 83 02 C0 F1 
[MODBUS] Exception: 0x02 (Gecersiz adres)
[TX] 01 03 12 8E 00 01 E1 59 
[RX] (5 bytes) 01 83 02 C0 F1 
[MODBUS] Exception: 0x02 (Gecersiz adres)
[TX] 01 03 12 8F 00 01 B0 99 
[RX] (5 bytes) 01 83 02 C0 F1 
[MODBUS] Exception: 0x02 (Gecersiz adres)
[TX] 01 03 12 90 00 01 81 5F 
[RX] (5 bytes) 01 83 02 C0 F1 
[MODBUS] Exception: 0x02 (Gecersiz adres)
[TX] 01 03 12 91 00 01 D0 9F 
[RX] (5 bytes) 01 83 02 C0 F1 
[MODBUS] Exception: 0x02 (Gecersiz adres)
[TX] 01 03 12 92 00 01 20 9F 
[RX] (5 bytes) 01 83 02 C0 F1 
[MODBUS] Exception: 0x02 (Gecersiz adres)
[TX] 01 03 12 93 00 01 71 5F 
[RX] (5 bytes) 01 83 02 C0 F1 
[MODBUS] Exception: 0x02 (Gecersiz adres)
[TX] 01 03 12 94 00 01 C0 9E 
[RX] (5 bytes) 01 83 02 C0 F1 
[MODBUS] Exception: 0x02 (Gecersiz adres)
[TX] 01 03 12 95 00 01 91 5E 
[RX] (5 bytes) 01 83 02 C0 F1 
[MODBUS] Exception: 0x02 (Gecersiz adres)
[TX] 01 03 12 96 00 01 61 5E 
[RX] (5 bytes) 01 83 02 C0 F1 
[MODBUS] Exception: 0x02 (Gecersiz adres)
[TX] 01 03 12 97 00 01 30 9E 
[RX] (5 bytes) 01 83 02 C0 F1 
[MODBUS] Exception: 0x02 (Gecersiz adres)
[TX] 01 03 12 98 00 01 00 9D 
[RX] (5 bytes) 01 83 02 C0 F1 
[MODBUS] Exception: 0x02 (Gecersiz adres)
[TX] 01 03 12 99 00 01 51 5D 
[RX] (5 bytes) 01 83 02 C0 F1 
[MODBUS] Exception: 0x02 (Gecersiz adres)
[TX] 01 03 12 9A 00 01 A1 5D 
[RX] (5 bytes) 01 83 02 C0 F1 
[MODBUS] Exception: 0x02 (Gecersiz adres)
[TX] 01 03 12 9B 00 01 F0 9D 
[RX] (5 bytes) 01 83 02 C0 F1 
[MODBUS] Exception: 0x02 (Gecersiz adres)
[TX] 01 03 12 9C 00 01 41 5C 
[RX] (5 bytes) 01 83 02 C0 F1 
[MODBUS] Exception: 0x02 (Gecersiz adres)
[TX] 01 03 12 9D 00 01 10 9C 
[RX] (5 bytes) 01 83 02 C0 F1 
[MODBUS] Exception: 0x02 (Gecersiz adres)
[TX] 01 03 12 9E 00 01 E0 9C 
[RX] (5 bytes) 01 83 02 C0 F1 
[MODBUS] Exception: 0x02 (Gecersiz adres)
[TX] 01 03 12 9F 00 01 B1 5C 
[RX] (5 bytes) 01 83 02 C0 F1 
[MODBUS] Exception: 0x02 (Gecersiz adres)
[TX] 01 03 12 A0 00 01 81 50 
[RX] (5 bytes) 01 83 02 C0 F1 
[MODBUS] Exception: 0x02 (Gecersiz adres)
[TX] 01 03 12 A1 00 01 D0 90 
[RX] (5 bytes) 01 83 02 C0 F1 
[MODBUS] Exception: 0x02 (Gecersiz adres)
[TX] 01 03 12 A2 00 01 20 90 
[RX] (5 bytes) 01 83 02 C0 F1 
[MODBUS] Exception: 0x02 (Gecersiz adres)
[TX] 01 03 12 A3 00 01 71 50 
[RX] (5 bytes) 01 83 02 C0 F1 
[MODBUS] Exception: 0x02 (Gecersiz adres)
[TX] 01 03 12 A4 00 01 C0 91 
[RX] (5 bytes) 01 83 02 C0 F1 
[MODBUS] Exception: 0x02 (Gecersiz adres)
[TX] 01 03 12 A5 00 01 91 51 
[RX] (5 bytes) 01 83 02 C0 F1 
[MODBUS] Exception: 0x02 (Gecersiz adres)
[TX] 01 03 12 A6 00 01 61 51 
[RX] (5 bytes) 01 83 02 C0 F1 
[MODBUS] Exception: 0x02 (Gecersiz adres)
[TX] 01 03 12 A7 00 01 30 91 
[RX] (5 bytes) 01 83 02 C0 F1 
[MODBUS] Exception: 0x02 (Gecersiz adres)
[TX] 01 03 12 A8 00 01 00 92 
[RX] (5 bytes) 01 83 02 C0 F1 
[MODBUS] Exception: 0x02 (Gecersiz adres)
[TX] 01 03 12 A9 00 01 51 52 
[RX] (5 bytes) 01 83 02 C0 F1 
[MODBUS] Exception: 0x02 (Gecersiz adres)
[TX] 01 03 12 AA 00 01 A1 52 
[RX] (5 bytes) 01 83 02 C0 F1 
[MODBUS] Exception: 0x02 (Gecersiz adres)
[TX] 01 03 12 AB 00 01 F0 92 
[RX] (5 bytes) 01 83 02 C0 F1 
[MODBUS] Exception: 0x02 (Gecersiz adres)
[TX] 01 03 12 AC 00 01 41 53 
[RX] (5 bytes) 01 83 02 C0 F1 
[MODBUS] Exception: 0x02 (Gecersiz adres)
[TX] 01 03 12 AD 00 01 10 93 
[RX] (5 bytes) 01 83 02 C0 F1 
[MODBUS] Exception: 0x02 (Gecersiz adres)
[TX] 01 03 12 AE 00 01 E0 93 
[RX] (5 bytes) 01 83 02 C0 F1 
[MODBUS] Exception: 0x02 (Gecersiz adres)
[TX] 01 03 12 AF 00 01 B1 53 
[RX] (5 bytes) 01 83 02 C0 F1 
[MODBUS] Exception: 0x02 (Gecersiz adres)
[TX] 01 03 12 B0 00 01 80 95 
[RX] (5 bytes) 01 83 02 C0 F1 
[MODBUS] Exception: 0x02 (Gecersiz adres)
[TX] 01 03 12 B1 00 01 D1 55 
[RX] (5 bytes) 01 83 02 C0 F1 
[MODBUS] Exception: 0x02 (Gecersiz adres)
[TX] 01 03 12 B2 00 01 21 55 
[RX] (5 bytes) 01 83 02 C0 F1 
[MODBUS] Exception: 0x02 (Gecersiz adres)
[TX] 01 03 12 B3 00 01 70 95 
[RX] (5 bytes) 01 83 02 C0 F1 
[MODBUS] Exception: 0x02 (Gecersiz adres)
[TX] 01 03 12 B4 00 01 C1 54 
[RX] (5 bytes) 01 83 02 C0 F1 
[MODBUS] Exception: 0x02 (Gecersiz adres)
[TX] 01 03 12 B5 00 01 90 94 
[RX] (5 bytes) 01 83 02 C0 F1 
[MODBUS] Exception: 0x02 (Gecersiz adres)
[TX] 01 03 12 B6 00 01 60 94 
[RX] (5 bytes) 01 83 02 C0 F1 
[MODBUS] Exception: 0x02 (Gecersiz adres)
[TX] 01 03 12 B7 00 01 31 54 
[RX] (5 bytes) 01 83 02 C0 F1 
[MODBUS] Exception: 0x02 (Gecersiz adres)
[TX] 01 03 12 B8 00 01 01 57 
[RX] (5 bytes) 01 83 02 C0 F1 
[MODBUS] Exception: 0x02 (Gecersiz adres)
[TX] 01 03 12 B9 00 01 50 97 
[RX] (5 bytes) 01 83 02 C0 F1 
[MODBUS] Exception: 0x02 (Gecersiz adres)
[TX] 01 03 12 BA 00 01 A0 97 
[RX] (5 bytes) 01 83 02 C0 F1 
[MODBUS] Exception: 0x02 (Gecersiz adres)
[TX] 01 03 12 BB 00 01 F1 57 
[RX] (5 bytes) 01 83 02 C0 F1 
[MODBUS] Exception: 0x02 (Gecersiz adres)
