> fullscan

##############################################
#    SOFAR REGISTER TARAMA BASLIYOR          #
##############################################
Aralik : 0x0000 - 0x1FFF (8192 register)
Blok   : 10 register/blok
Slave  : 1
Durdurmak icin 'q' basin.
----------------------------------------------
CSV FORMAT: addr_hex,value_hex,value_dec,value_signed,status
----------------------------------------------
[TX] 01 03 00 00 00 0A C5 CD 
[RX] (5 bytes) 01 83 02 C0 F1 
[MODBUS] Exception: 0x02 (Gecersiz adres)
[TX] 01 03 00 00 00 01 84 0A 
[RX] (5 bytes) 01 83 02 C0 F1 
[MODBUS] Exception: 0x02 (Gecersiz adres)
0x0000,,,, EX_02
[TX] 01 03 00 01 00 01 D5 CA 
[RX] (5 bytes) 01 83 02 C0 F1 
[MODBUS] Exception: 0x02 (Gecersiz adres)
0x0001,,,, EX_02
[TX] 01 03 00 02 00 01 25 CA 
[RX] (5 bytes) 01 83 02 C0 F1 
[MODBUS] Exception: 0x02 (Gecersiz adres)
0x0002,,,, EX_02
[TX] 01 03 00 03 00 01 74 0A 
[RX] (5 bytes) 01 83 02 C0 F1 
[MODBUS] Exception: 0x02 (Gecersiz adres)
0x0003,,,, EX_02
[TX] 01 03 00 04 00 01 C5 CB 
[RX] (5 bytes) 01 83 02 C0 F1 
[MODBUS] Exception: 0x02 (Gecersiz adres)
0x0004,,,, EX_02
[TX] 01 03 00 05 00 01 94 0B 
[RX] (5 bytes) 01 83 02 C0 F1 
[MODBUS] Exception: 0x02 (Gecersiz adres)
0x0005,,,, EX_02
[TX] 01 03 00 06 00 01 64 0B 
[RX] (5 bytes) 01 83 02 C0 F1 
[MODBUS] Exception: 0x02 (Gecersiz adres)
0x0006,,,, EX_02
[TX] 01 03 00 07 00 01 35 CB 
[RX] (5 bytes) 01 83 02 C0 F1 
[MODBUS] Exception: 0x02 (Gecersiz adres)
0x0007,,,, EX_02
[TX] 01 03 00 08 00 01 05 C8 
[RX] (5 bytes) 01 83 02 C0 F1 
[MODBUS] Exception: 0x02 (Gecersiz adres)
0x0008,,,, EX_02
[TX] 01 03 00 09 00 01 54 08 
[RX] (5 bytes) 01 83 02 C0 F1 
[MODBUS] Exception: 0x02 (Gecersiz adres)
0x0009,,,, EX_02
[TX] 01 03 00 0A 00 0A E5 CF 
[RX] (5 bytes) 01 83 02 C0 F1 
[MODBUS] Exception: 0x02 (Gecersiz adres)
[TX] 01 03 00 0A 00 01 A4 08 
[RX] (5 bytes) 01 83 02 C0 F1 
[MODBUS] Exception: 0x02 (Gecersiz adres)
0x000A,,,, EX_02
[TX] 01 03 00 0B 00 01 F5 C8 
[RX] (5 bytes) 01 83 02 C0 F1 
[MODBUS] Exception: 0x02 (Gecersiz adres)
0x000B,,,, EX_02
[TX] 01 03 00 0C 00 01 44 09 
[RX] (5 bytes) 01 83 02 C0 F1 
[MODBUS] Exception: 0x02 (Gecersiz adres)
0x000C,,,, EX_02
[TX] 01 03 00 0D 00 01 15 C9 
[RX] (5 bytes) 01 83 02 C0 F1 
[MODBUS] Exception: 0x02 (Gecersiz adres)
0x000D,,,, EX_02
[TX] 01 03 00 0E 00 01 E5 C9 
[RX] (5 bytes) 01 83 02 C0 F1 
[MODBUS] Exception: 0x02 (Gecersiz adres)
0x000E,,,, EX_02
[TX] 01 03 00 0F 00 01 B4 09 
[RX] (5 bytes) 01 83 02 C0 F1 
[MODBUS] Exception: 0x02 (Gecersiz adres)
0x000F,,,, EX_02
[TX] 01 03 00 10 00 01 85 CF 
[RX] (5 bytes) 01 83 02 C0 F1 
[MODBUS] Exception: 0x02 (Gecersiz adres)
0x0010,,,, EX_02
[TX] 01 03 00 11 00 01 D4 0F 
[RX] (5 bytes) 01 83 02 C0 F1 
[MODBUS] Exception: 0x02 (Gecersiz adres)
0x0011,,,, EX_02
[TX] 01 03 00 12 00 01 24 0F 
[RX] (5 bytes) 01 83 02 C0 F1 
[MODBUS] Exception: 0x02 (Gecersiz adres)
0x0012,,,, EX_02
[TX] 01 03 00 13 00 01 75 CF 
[RX] (5 bytes) 01 83 02 C0 F1 
[MODBUS] Exception: 0x02 (Gecersiz adres)
0x0013,,,, EX_02
[TX] 01 03 00 14 00 0A 85 C9 
[RX] (5 bytes) 01 83 02 C0 F1 
[MODBUS] Exception: 0x02 (Gecersiz adres)
[TX] 01 03 00 14 00 01 C4 0E 
[RX] (5 bytes) 01 83 02 C0 F1 
[MODBUS] Exception: 0x02 (Gecersiz adres)
0x0014,,,, EX_02
[TX] 01 03 00 15 00 01 95 CE 
[RX] (5 bytes) 01 83 02 C0 F1 
[MODBUS] Exception: 0x02 (Gecersiz adres)
0x0015,,,, EX_02
[TX] 01 03 00 16 00 01 65 CE 
[RX] (5 bytes) 01 83 02 C0 F1 
[MODBUS] Exception: 0x02 (Gecersiz adres)
0x0016,,,, EX_02
[TX] 01 03 00 17 00 01 34 0E 
[RX] (5 bytes) 01 83 02 C0 F1 
[MODBUS] Exception: 0x02 (Gecersiz adres)
0x0017,,,, EX_02
[TX] 01 03 00 18 00 01 04 0D 
[RX] (5 bytes) 01 83 02 C0 F1 
[MODBUS] Exception: 0x02 (Gecersiz adres)
0x0018,,,, EX_02
[TX] 01 03 00 19 00 01 55 CD 
[RX] (5 bytes) 01 83 02 C0 F1 
[MODBUS] Exception: 0x02 (Gecersiz adres)
0x0019,,,, EX_02
[TX] 01 03 00 1A 00 01 A5 CD 
[RX] (5 bytes) 01 83 02 C0 F1 
[MODBUS] Exception: 0x02 (Gecersiz adres)
0x001A,,,, EX_02
[TX] 01 03 00 1B 00 01 F4 0D 
[RX] (5 bytes) 01 83 02 C0 F1 
[MODBUS] Exception: 0x02 (Gecersiz adres)
0x001B,,,, EX_02
[TX] 01 03 00 1C 00 01 45 CC 
[RX] (5 bytes) 01 83 02 C0 F1 
[MODBUS] Exception: 0x02 (Gecersiz adres)
0x001C,,,, EX_02
[TX] 01 03 00 1D 00 01 14 0C 
[RX] (5 bytes) 01 83 02 C0 F1 
[MODBUS] Exception: 0x02 (Gecersiz adres)
0x001D,,,, EX_02
[TX] 01 03 00 1E 00 0A A5 CB 
[RX] (5 bytes) 01 83 02 C0 F1 
[MODBUS] Exception: 0x02 (Gecersiz adres)
[TX] 01 03 00 1E 00 01 E4 0C 
[RX] (5 bytes) 01 83 02 C0 F1 
[MODBUS] Exception: 0x02 (Gecersiz adres)
0x001E,,,, EX_02
[TX] 01 03 00 1F 00 01 B5 CC 
[RX] (5 bytes) 01 83 02 C0 F1 
[MODBUS] Exception: 0x02 (Gecersiz adres)
0x001F,,,, EX_02
[TX] 01 03 00 20 00 01 85 C0 
[RX] (5 bytes) 01 83 02 C0 F1 
[MODBUS] Exception: 0x02 (Gecersiz adres)
0x0020,,,, EX_02
[TX] 01 03 00 21 00 01 D4 00 
[RX] (5 bytes) 01 83 02 C0 F1 
[MODBUS] Exception: 0x02 (Gecersiz adres)
0x0021,,,, EX_02
[TX] 01 03 00 22 00 01 24 00 
[RX] (5 bytes) 01 83 02 C0 F1 
[MODBUS] Exception: 0x02 (Gecersiz adres)
0x0022,,,, EX_02
[TX] 01 03 00 23 00 01 75 C0 
[RX] (5 bytes) 01 83 02 C0 F1 
[MODBUS] Exception: 0x02 (Gecersiz adres)
0x0023,,,, EX_02
[TX] 01 03 00 24 00 01 C4 01 
[RX] (5 bytes) 01 83 02 C0 F1 
[MODBUS] Exception: 0x02 (Gecersiz adres)
0x0024,,,, EX_02
[TX] 01 03 00 25 00 01 95 C1 
[RX] (5 bytes) 01 83 02 C0 F1 
[MODBUS] Exception: 0x02 (Gecersiz adres)
0x0025,,,, EX_02
[TX] 01 03 00 26 00 01 65 C1 
[RX] (5 bytes) 01 83 02 C0 F1 
[MODBUS] Exception: 0x02 (Gecersiz adres)
0x0026,,,, EX_02
[TX] 01 03 00 27 00 01 34 01 
[RX] (5 bytes) 01 83 02 C0 F1 
[MODBUS] Exception: 0x02 (Gecersiz adres)
0x0027,,,, EX_02
[TX] 01 03 00 28 00 0A 45 C5 
[RX] (5 bytes) 01 83 02 C0 F1 
[MODBUS] Exception: 0x02 (Gecersiz adres)
[TX] 01 03 00 28 00 01 04 02 
[RX] (5 bytes) 01 83 02 C0 F1 
[MODBUS] Exception: 0x02 (Gecersiz adres)
0x0028,,,, EX_02
[TX] 01 03 00 29 00 01 55 C2 
[RX] (5 bytes) 01 83 02 C0 F1 
[MODBUS] Exception: 0x02 (Gecersiz adres)
0x0029,,,, EX_02
[TX] 01 03 00 2A 00 01 A5 C2 
[RX] (5 bytes) 01 83 02 C0 F1 
[MODBUS] Exception: 0x02 (Gecersiz adres)
0x002A,,,, EX_02
[TX] 01 03 00 2B 00 01 F4 02 
[RX] (5 bytes) 01 83 02 C0 F1 
[MODBUS] Exception: 0x02 (Gecersiz adres)
0x002B,,,, EX_02
[TX] 01 03 00 2C 00 01 45 C3 
[RX] (5 bytes) 01 83 02 C0 F1 
[MODBUS] Exception: 0x02 (Gecersiz adres)
0x002C,,,, EX_02
[TX] 01 03 00 2D 00 01 14 03 
[RX] (5 bytes) 01 83 02 C0 F1 
[MODBUS] Exception: 0x02 (Gecersiz adres)
0x002D,,,, EX_02
[TX] 01 03 00 2E 00 01 E4 03 
[RX] (5 bytes) 01 83 02 C0 F1 
[MODBUS] Exception: 0x02 (Gecersiz adres)
0x002E,,,, EX_02
[TX] 01 03 00 2F 00 01 B5 C3 
[RX] (5 bytes) 01 83 02 C0 F1 
[MODBUS] Exception: 0x02 (Gecersiz adres)
0x002F,,,, EX_02
[TX] 01 03 00 30 00 01 84 05 
[RX] (5 bytes) 01 83 02 C0 F1 
[MODBUS] Exception: 0x02 (Gecersiz adres)
0x0030,,,, EX_02
[TX] 01 03 00 31 00 01 D5 C5 
[RX] (5 bytes) 01 83 02 C0 F1 
[MODBUS] Exception: 0x02 (Gecersiz adres)
0x0031,,,, EX_02
[TX] 01 03 00 32 00 0A 64 02 
[RX] (5 bytes) 01 83 02 C0 F1 
[MODBUS] Exception: 0x02 (Gecersiz adres)
[TX] 01 03 00 32 00 01 25 C5 
[RX] (5 bytes) 01 83 02 C0 F1 
[MODBUS] Exception: 0x02 (Gecersiz adres)
0x0032,,,, EX_02
[TX] 01 03 00 33 00 01 74 05 
[RX] (5 bytes) 01 83 02 C0 F1 
[MODBUS] Exception: 0x02 (Gecersiz adres)
0x0033,,,, EX_02
[TX] 01 03 00 34 00 01 C5 C4 
[RX] (5 bytes) 01 83 02 C0 F1 
[MODBUS] Exception: 0x02 (Gecersiz adres)
0x0034,,,, EX_02
[TX] 01 03 00 35 00 01 94 04 
[RX] (5 bytes) 01 83 02 C0 F1 
[MODBUS] Exception: 0x02 (Gecersiz adres)
0x0035,,,, EX_02
[TX] 01 03 00 36 00 01 64 04 
[RX] (5 bytes) 01 83 02 C0 F1 
[MODBUS] Exception: 0x02 (Gecersiz adres)
0x0036,,,, EX_02
[TX] 01 03 00 37 00 01 35 C4 
[RX] (5 bytes) 01 83 02 C0 F1 
[MODBUS] Exception: 0x02 (Gecersiz adres)
0x0037,,,, EX_02
[TX] 01 03 00 38 00 01 05 C7 
[RX] (5 bytes) 01 83 02 C0 F1 
[MODBUS] Exception: 0x02 (Gecersiz adres)
0x0038,,,, EX_02
[TX] 01 03 00 39 00 01 54 07 
[RX] (5 bytes) 01 83 02 C0 F1 
[MODBUS] Exception: 0x02 (Gecersiz adres)
0x0039,,,, EX_02
[TX] 01 03 00 3A 00 01 A4 07 
[RX] (5 bytes) 01 83 02 C0 F1 
[MODBUS] Exception: 0x02 (Gecersiz adres)
0x003A,,,, EX_02
[TX] 01 03 00 3B 00 01 F5 C7 
[RX] (5 bytes) 01 83 02 C0 F1 
[MODBUS] Exception: 0x02 (Gecersiz adres)
0x003B,,,, EX_02
[TX] 01 03 00 3C 00 0A 05 C1 
[RX] (5 bytes) 01 83 02 C0 F1 
[MODBUS] Exception: 0x02 (Gecersiz adres)
[TX] 01 03 00 3C 00 01 44 06 
[RX] (5 bytes) 01 83 02 C0 F1 
[MODBUS] Exception: 0x02 (Gecersiz adres)
0x003C,,,, EX_02
[TX] 01 03 00 3D 00 01 15 C6 
[RX] (5 bytes) 01 83 02 C0 F1 
[MODBUS] Exception: 0x02 (Gecersiz adres)
0x003D,,,, EX_02
[TX] 01 03 00 3E 00 01 E5 C6 
[RX] (5 bytes) 01 83 02 C0 F1 
[MODBUS] Exception: 0x02 (Gecersiz adres)
0x003E,,,, EX_02
[TX] 01 03 00 3F 00 01 B4 06 
[RX] (5 bytes) 01 83 02 C0 F1 
[MODBUS] Exception: 0x02 (Gecersiz adres)
0x003F,,,, EX_02
[TX] 01 03 00 40 00 01 85 DE 
[RX] (7 bytes) 01 03 02 00 00 B8 44 
0x0040,0x0000,0,0,OK
[TX] 01 03 00 41 00 01 D4 1E 
[RX] (7 bytes) 01 03 02 00 00 B8 44 
0x0041,0x0000,0,0,OK
[TX] 01 03 00 42 00 01 24 1E 
[RX] (7 bytes) 01 03 02 00 00 B8 44 
0x0042,0x0000,0,0,OK
[TX] 01 03 00 43 00 01 75 DE 
[RX] (7 bytes) 01 03 02 00 1F F9 8C 
0x0043,0x001F,31,31,OK
[TX] 01 03 00 44 00 01 C4 1F 
[RX] (7 bytes) 01 03 02 01 36 39 C2 
0x0044,0x0136,310,310,OK
[TX] 01 03 00 45 00 01 95 DF 
[RX] (7 bytes) 01 03 02 00 00 B8 44 
0x0045,0x0000,0,0,OK
[TX] 01 03 00 46 00 0A 24 18 
[RX] (25 bytes) 01 03 14 00 00 00 00 00 00 00 00 00 00 00 00 00 00 00 00 00 00 00 00 A3 67 
0x0046,0x0000,0,0,OK
0x0047,0x0000,0,0,OK
0x0048,0x0000,0,0,OK
0x0049,0x0000,0,0,OK
0x004A,0x0000,0,0,OK
0x004B,0x0000,0,0,OK
0x004C,0x0000,0,0,OK
0x004D,0x0000,0,0,OK
0x004E,0x0000,0,0,OK
0x004F,0x0000,0,0,OK
[TX] 01 03 00 50 00 0A C5 DC 
[RX] (25 bytes) 01 03 14 00 00 00 00 04 04 04 04 03 03 00 00 00 00 00 00 00 00 00 00 A5 A7 
0x0050,0x0000,0,0,OK
0x0051,0x0000,0,0,OK
0x0052,0x0404,1028,1028,OK
0x0053,0x0404,1028,1028,OK
0x0054,0x0303,771,771,OK
0x0055,0x0000,0,0,OK
0x0056,0x0000,0,0,OK
0x0057,0x0000,0,0,OK
0x0058,0x0000,0,0,OK
0x0059,0x0000,0,0,OK
[TX] 01 03 00 5A 00 0A E5 DE 
[RX] (25 bytes) 01 03 14 00 00 00 00 00 00 00 00 00 00 00 00 00 00 00 00 00 00 00 00 A3 67 
0x005A,0x0000,0,0,OK
0x005B,0x0000,0,0,OK
0x005C,0x0000,0,0,OK
0x005D,0x0000,0,0,OK
0x005E,0x0000,0,0,OK
0x005F,0x0000,0,0,OK
0x0060,0x0000,0,0,OK
0x0061,0x0000,0,0,OK
0x0062,0x0000,0,0,OK
0x0063,0x0000,0,0,OK
[TX] 01 03 00 64 00 0A 84 12 
[RX] (25 bytes) 01 03 14 00 00 00 00 00 00 00 00 00 00 00 00 00 00 00 00 00 00 00 00 A3 67 
0x0064,0x0000,0,0,OK
0x0065,0x0000,0,0,OK
0x0066,0x0000,0,0,OK
0x0067,0x0000,0,0,OK
0x0068,0x0000,0,0,OK
0x0069,0x0000,0,0,OK
0x006A,0x0000,0,0,OK
0x006B,0x0000,0,0,OK
0x006C,0x0000,0,0,OK
0x006D,0x0000,0,0,OK
[TX] 01 03 00 6E 00 0A A4 10 
[RX] (25 bytes) 01 03 14 00 00 00 00 00 00 00 00 00 00 00 00 00 00 00 00 00 00 00 00 A3 67 
0x006E,0x0000,0,0,OK
0x006F,0x0000,0,0,OK
0x0070,0x0000,0,0,OK
0x0071,0x0000,0,0,OK
0x0072,0x0000,0,0,OK
0x0073,0x0000,0,0,OK
0x0074,0x0000,0,0,OK
0x0075,0x0000,0,0,OK
0x0076,0x0000,0,0,OK
0x0077,0x0000,0,0,OK
[TX] 01 03 00 78 00 0A 45 D4 
[RX] (5 bytes) 01 83 02 C0 F1 
[MODBUS] Exception: 0x02 (Gecersiz adres)
[TX] 01 03 00 78 00 01 04 13 
[RX] (7 bytes) 01 03 02 00 00 B8 44 
0x0078,0x0000,0,0,OK
[TX] 01 03 00 79 00 01 55 D3 
[RX] (7 bytes) 01 03 02 00 00 B8 44 
0x0079,0x0000,0,0,OK
[TX] 01 03 00 7A 00 01 A5 D3 
[RX] (7 bytes) 01 03 02 00 00 B8 44 
0x007A,0x0000,0,0,OK
[TX] 01 03 00 7B 00 01 F4 13 
[RX] (7 bytes) 01 03 02 00 00 B8 44 
0x007B,0x0000,0,0,OK
[TX] 01 03 00 7C 00 01 45 D2 
[RX] (7 bytes) 01 03 02 00 00 B8 44 
0x007C,0x0000,0,0,OK
[TX] 01 03 00 7D 00 01 14 12 
[RX] (7 bytes) 01 03 02 00 00 B8 44 
0x007D,0x0000,0,0,OK
[TX] 01 03 00 7E 00 01 E4 12 
[RX] (7 bytes) 01 03 02 00 00 B8 44 
0x007E,0x0000,0,0,OK
[TX] 01 03 00 7F 00 01 B5 D2 
[RX] (7 bytes) 01 03 02 00 00 B8 44 
0x007F,0x0000,0,0,OK
[TX] 01 03 00 80 00 01 85 E2 
[RX] (5 bytes) 01 83 02 C0 F1 
[MODBUS] Exception: 0x02 (Gecersiz adres)
0x0080,,,, EX_02
[TX] 01 03 00 81 00 01 D4 22 
[RX] (5 bytes) 01 83 02 C0 F1 
[MODBUS] Exception: 0x02 (Gecersiz adres)
0x0081,,,, EX_02
[TX] 01 03 00 82 00 0A 65 E5 
[RX] (5 bytes) 01 83 02 C0 F1 
[MODBUS] Exception: 0x02 (Gecersiz adres)
[TX] 01 03 00 82 00 01 24 22 
[RX] (5 bytes) 01 83 02 C0 F1 
[MODBUS] Exception: 0x02 (Gecersiz adres)
0x0082,,,, EX_02
[TX] 01 03 00 83 00 01 75 E2 
[RX] (5 bytes) 01 83 02 C0 F1 
[MODBUS] Exception: 0x02 (Gecersiz adres)
0x0083,,,, EX_02
[TX] 01 03 00 84 00 01 C4 23 
[RX] (5 bytes) 01 83 02 C0 F1 
[MODBUS] Exception: 0x02 (Gecersiz adres)
0x0084,,,, EX_02
[TX] 01 03 00 85 00 01 95 E3 
[RX] (5 bytes) 01 83 02 C0 F1 
[MODBUS] Exception: 0x02 (Gecersiz adres)
0x0085,,,, EX_02
[TX] 01 03 00 86 00 01 65 E3 
[RX] (5 bytes) 01 83 02 C0 F1 
[MODBUS] Exception: 0x02 (Gecersiz adres)
0x0086,,,, EX_02
[TX] 01 03 00 87 00 01 34 23 
[RX] (5 bytes) 01 83 02 C0 F1 
[MODBUS] Exception: 0x02 (Gecersiz adres)
0x0087,,,, EX_02
[TX] 01 03 00 88 00 01 04 20 
[RX] (5 bytes) 01 83 02 C0 F1 
[MODBUS] Exception: 0x02 (Gecersiz adres)
0x0088,,,, EX_02
[TX] 01 03 00 89 00 01 55 E0 
[RX] (5 bytes) 01 83 02 C0 F1 
[MODBUS] Exception: 0x02 (Gecersiz adres)
0x0089,,,, EX_02
[TX] 01 03 00 8A 00 01 A5 E0 
[RX] (5 bytes) 01 83 02 C0 F1 
[MODBUS] Exception: 0x02 (Gecersiz adres)
0x008A,,,, EX_02
[TX] 01 03 00 8B 00 01 F4 20 
[RX] (5 bytes) 01 83 02 C0 F1 
[MODBUS] Exception: 0x02 (Gecersiz adres)
0x008B,,,, EX_02
[TX] 01 03 00 8C 00 0A 04 26 
[RX] (5 bytes) 01 83 02 C0 F1 
[MODBUS] Exception: 0x02 (Gecersiz adres)
[TX] 01 03 00 8C 00 01 45 E1 
[RX] (5 bytes) 01 83 02 C0 F1 
[MODBUS] Exception: 0x02 (Gecersiz adres)
0x008C,,,, EX_02
[TX] 01 03 00 8D 00 01 14 21 
[RX] (5 bytes) 01 83 02 C0 F1 
[MODBUS] Exception: 0x02 (Gecersiz adres)
0x008D,,,, EX_02
[TX] 01 03 00 8E 00 01 E4 21 
[RX] (5 bytes) 01 83 02 C0 F1 
[MODBUS] Exception: 0x02 (Gecersiz adres)
0x008E,,,, EX_02
[TX] 01 03 00 8F 00 01 B5 E1 
[RX] (5 bytes) 01 83 02 C0 F1 
[MODBUS] Exception: 0x02 (Gecersiz adres)
0x008F,,,, EX_02
[TX] 01 03 00 90 00 01 84 27 
[RX] (5 bytes) 01 83 02 C0 F1 
[MODBUS] Exception: 0x02 (Gecersiz adres)
0x0090,,,, EX_02
[TX] 01 03 00 91 00 01 D5 E7 
[RX] (5 bytes) 01 83 02 C0 F1 
[MODBUS] Exception: 0x02 (Gecersiz adres)
0x0091,,,, EX_02
[TX] 01 03 00 92 00 01 25 E7 
[RX] (5 bytes) 01 83 02 C0 F1 
[MODBUS] Exception: 0x02 (Gecersiz adres)
0x0092,,,, EX_02
[TX] 01 03 00 93 00 01 74 27 
[RX] (5 bytes) 01 83 02 C0 F1 
[MODBUS] Exception: 0x02 (Gecersiz adres)
0x0093,,,, EX_02
[TX] 01 03 00 94 00 01 C5 E6 
[RX] (5 bytes) 01 83 02 C0 F1 
[MODBUS] Exception: 0x02 (Gecersiz adres)
0x0094,,,, EX_02
[TX] 01 03 00 95 00 01 94 26 
[RX] (5 bytes) 01 83 02 C0 F1 
[MODBUS] Exception: 0x02 (Gecersiz adres)
0x0095,,,, EX_02
[TX] 01 03 00 96 00 0A 25 E1 
[RX] (5 bytes) 01 83 02 C0 F1 
[MODBUS] Exception: 0x02 (Gecersiz adres)
[TX] 01 03 00 96 00 01 64 26 
[RX] (5 bytes) 01 83 02 C0 F1 
[MODBUS] Exception: 0x02 (Gecersiz adres)
0x0096,,,, EX_02
[TX] 01 03 00 97 00 01 35 E6 
[RX] (5 bytes) 01 83 02 C0 F1 
[MODBUS] Exception: 0x02 (Gecersiz adres)
0x0097,,,, EX_02
[TX] 01 03 00 98 00 01 05 E5 
[RX] (5 bytes) 01 83 02 C0 F1 
[MODBUS] Exception: 0x02 (Gecersiz adres)
0x0098,,,, EX_02
[TX] 01 03 00 99 00 01 54 25 
[RX] (5 bytes) 01 83 02 C0 F1 
[MODBUS] Exception: 0x02 (Gecersiz adres)
0x0099,,,, EX_02
[TX] 01 03 00 9A 00 01 A4 25 
[RX] (5 bytes) 01 83 02 C0 F1 
[MODBUS] Exception: 0x02 (Gecersiz adres)
0x009A,,,, EX_02
[TX] 01 03 00 9B 00 01 F5 E5 
[RX] (5 bytes) 01 83 02 C0 F1 
[MODBUS] Exception: 0x02 (Gecersiz adres)
0x009B,,,, EX_02
[TX] 01 03 00 9C 00 01 44 24 
[RX] (5 bytes) 01 83 02 C0 F1 
[MODBUS] Exception: 0x02 (Gecersiz adres)
0x009C,,,, EX_02
[TX] 01 03 00 9D 00 01 15 E4 
[RX] (5 bytes) 01 83 02 C0 F1 
[MODBUS] Exception: 0x02 (Gecersiz adres)
0x009D,,,, EX_02
[TX] 01 03 00 9E 00 01 E5 E4 
[RX] (5 bytes) 01 83 02 C0 F1 
[MODBUS] Exception: 0x02 (Gecersiz adres)
0x009E,,,, EX_02
[TX] 01 03 00 9F 00 01 B4 24 
[RX] (5 bytes) 01 83 02 C0 F1 
[MODBUS] Exception: 0x02 (Gecersiz adres)
0x009F,,,, EX_02
[TX] 01 03 00 A0 00 0A C5 EF 
[RX] (5 bytes) 01 83 02 C0 F1 
[MODBUS] Exception: 0x02 (Gecersiz adres)
[TX] 01 03 00 A0 00 01 84 28 
[RX] (5 bytes) 01 83 02 C0 F1 
[MODBUS] Exception: 0x02 (Gecersiz adres)
0x00A0,,,, EX_02
[TX] 01 03 00 A1 00 01 D5 E8 
[RX] (5 bytes) 01 83 02 C0 F1 
[MODBUS] Exception: 0x02 (Gecersiz adres)
0x00A1,,,, EX_02
[TX] 01 03 00 A2 00 01 25 E8 
[RX] (5 bytes) 01 83 02 C0 F1 
[MODBUS] Exception: 0x02 (Gecersiz adres)
0x00A2,,,, EX_02
[TX] 01 03 00 A3 00 01 74 28 
[RX] (5 bytes) 01 83 02 C0 F1 
[MODBUS] Exception: 0x02 (Gecersiz adres)
0x00A3,,,, EX_02
[TX] 01 03 00 A4 00 01 C5 E9 
[RX] (5 bytes) 01 83 02 C0 F1 
[MODBUS] Exception: 0x02 (Gecersiz adres)
0x00A4,,,, EX_02
[TX] 01 03 00 A5 00 01 94 29 
[RX] (5 bytes) 01 83 02 C0 F1 
[MODBUS] Exception: 0x02 (Gecersiz adres)
0x00A5,,,, EX_02
[TX] 01 03 00 A6 00 01 64 29 
[RX] (5 bytes) 01 83 02 C0 F1 
[MODBUS] Exception: 0x02 (Gecersiz adres)
0x00A6,,,, EX_02
[TX] 01 03 00 A7 00 01 35 E9 
[RX] (5 bytes) 01 83 02 C0 F1 
[MODBUS] Exception: 0x02 (Gecersiz adres)
0x00A7,,,, EX_02
[TX] 01 03 00 A8 00 01 05 EA 
[RX] (5 bytes) 01 83 02 C0 F1 
[MODBUS] Exception: 0x02 (Gecersiz adres)
0x00A8,,,, EX_02
[TX] 01 03 00 A9 00 01 54 2A 
[RX] (5 bytes) 01 83 02 C0 F1 
[MODBUS] Exception: 0x02 (Gecersiz adres)
0x00A9,,,, EX_02
[TX] 01 03 00 AA 00 0A E5 ED 
[RX] (5 bytes) 01 83 02 C0 F1 
[MODBUS] Exception: 0x02 (Gecersiz adres)
[TX] 01 03 00 AA 00 01 A4 2A 
[RX] (5 bytes) 01 83 02 C0 F1 
[MODBUS] Exception: 0x02 (Gecersiz adres)
0x00AA,,,, EX_02
[TX] 01 03 00 AB 00 01 F5 EA 
[RX] (5 bytes) 01 83 02 C0 F1 
[MODBUS] Exception: 0x02 (Gecersiz adres)
0x00AB,,,, EX_02
[TX] 01 03 00 AC 00 01 44 2B 
[RX] (5 bytes) 01 83 02 C0 F1 
[MODBUS] Exception: 0x02 (Gecersiz adres)
0x00AC,,,, EX_02
[TX] 01 03 00 AD 00 01 15 EB 
[RX] (5 bytes) 01 83 02 C0 F1 
[MODBUS] Exception: 0x02 (Gecersiz adres)
0x00AD,,,, EX_02
[TX] 01 03 00 AE 00 01 E5 EB 
[RX] (5 bytes) 01 83 02 C0 F1 
[MODBUS] Exception: 0x02 (Gecersiz adres)
0x00AE,,,, EX_02
[TX] 01 03 00 AF 00 01 B4 2B 
[RX] (5 bytes) 01 83 02 C0 F1 
[MODBUS] Exception: 0x02 (Gecersiz adres)
0x00AF,,,, EX_02
[TX] 01 03 00 B0 00 01 85 ED 
[RX] (5 bytes) 01 83 02 C0 F1 
[MODBUS] Exception: 0x02 (Gecersiz adres)
0x00B0,,,, EX_02
[TX] 01 03 00 B1 00 01 D4 2D 
[RX] (5 bytes) 01 83 02 C0 F1 
[MODBUS] Exception: 0x02 (Gecersiz adres)
0x00B1,,,, EX_02
[TX] 01 03 00 B2 00 01 24 2D 
[RX] (5 bytes) 01 83 02 C0 F1 
[MODBUS] Exception: 0x02 (Gecersiz adres)
0x00B2,,,, EX_02
[TX] 01 03 00 B3 00 01 75 ED 
[RX] (5 bytes) 01 83 02 C0 F1 
[MODBUS] Exception: 0x02 (Gecersiz adres)
0x00B3,,,, EX_02
[TX] 01 03 00 B4 00 0A 85 EB 
[RX] (5 bytes) 01 83 02 C0 F1 
[MODBUS] Exception: 0x02 (Gecersiz adres)
[TX] 01 03 00 B4 00 01 C4 2C 
[RX] (5 bytes) 01 83 02 C0 F1 
[MODBUS] Exception: 0x02 (Gecersiz adres)
0x00B4,,,, EX_02
[TX] 01 03 00 B5 00 01 95 EC 
[RX] (5 bytes) 01 83 02 C0 F1 
[MODBUS] Exception: 0x02 (Gecersiz adres)
0x00B5,,,, EX_02
[TX] 01 03 00 B6 00 01 65 EC 
[RX] (5 bytes) 01 83 02 C0 F1 
[MODBUS] Exception: 0x02 (Gecersiz adres)
0x00B6,,,, EX_02
[TX] 01 03 00 B7 00 01 34 2C 
[RX] (5 bytes) 01 83 02 C0 F1 
[MODBUS] Exception: 0x02 (Gecersiz adres)
0x00B7,,,, EX_02
[TX] 01 03 00 B8 00 01 04 2F 
[RX] (5 bytes) 01 83 02 C0 F1 
[MODBUS] Exception: 0x02 (Gecersiz adres)
0x00B8,,,, EX_02
[TX] 01 03 00 B9 00 01 55 EF 
[RX] (5 bytes) 01 83 02 C0 F1 
[MODBUS] Exception: 0x02 (Gecersiz adres)
0x00B9,,,, EX_02
[TX] 01 03 00 BA 00 01 A5 EF 
[RX] (5 bytes) 01 83 02 C0 F1 
[MODBUS] Exception: 0x02 (Gecersiz adres)
0x00BA,,,, EX_02
[TX] 01 03 00 BB 00 01 F4 2F 
[RX] (5 bytes) 01 83 02 C0 F1 
[MODBUS] Exception: 0x02 (Gecersiz adres)
0x00BB,,,, EX_02
[TX] 01 03 00 BC 00 01 45 EE 
[RX] (5 bytes) 01 83 02 C0 F1 
[MODBUS] Exception: 0x02 (Gecersiz adres)
0x00BC,,,, EX_02
[TX] 01 03 00 BD 00 01 14 2E 
[RX] (5 bytes) 01 83 02 C0 F1 
[MODBUS] Exception: 0x02 (Gecersiz adres)
0x00BD,,,, EX_02
[TX] 01 03 00 BE 00 0A A5 E9 
[RX] (5 bytes) 01 83 02 C0 F1 
[MODBUS] Exception: 0x02 (Gecersiz adres)
[TX] 01 03 00 BE 00 01 E4 2E 
[RX] (5 bytes) 01 83 02 C0 F1 
[MODBUS] Exception: 0x02 (Gecersiz adres)
0x00BE,,,, EX_02
[TX] 01 03 00 BF 00 01 B5 EE 
[RX] (5 bytes) 01 83 02 C0 F1 
[MODBUS] Exception: 0x02 (Gecersiz adres)
0x00BF,,,, EX_02
[TX] 01 03 00 C0 00 01 84 36 
[RX] (5 bytes) 01 83 02 C0 F1 
[MODBUS] Exception: 0x02 (Gecersiz adres)
0x00C0,,,, EX_02
[TX] 01 03 00 C1 00 01 D5 F6 
[RX] (5 bytes) 01 83 02 C0 F1 
[MODBUS] Exception: 0x02 (Gecersiz adres)
0x00C1,,,, EX_02
[TX] 01 03 00 C2 00 01 25 F6 
[RX] (5 bytes) 01 83 02 C0 F1 
[MODBUS] Exception: 0x02 (Gecersiz adres)
0x00C2,,,, EX_02
[TX] 01 03 00 C3 00 01 74 36 
[RX] (5 bytes) 01 83 02 C0 F1 
[MODBUS] Exception: 0x02 (Gecersiz adres)
0x00C3,,,, EX_02
[TX] 01 03 00 C4 00 01 C5 F7 
[RX] (5 bytes) 01 83 02 C0 F1 
[MODBUS] Exception: 0x02 (Gecersiz adres)
0x00C4,,,, EX_02
[TX] 01 03 00 C5 00 01 94 37 
[RX] (5 bytes) 01 83 02 C0 F1 
[MODBUS] Exception: 0x02 (Gecersiz adres)
0x00C5,,,, EX_02
[TX] 01 03 00 C6 00 01 64 37 
[RX] (5 bytes) 01 83 02 C0 F1 
[MODBUS] Exception: 0x02 (Gecersiz adres)
0x00C6,,,, EX_02
[TX] 01 03 00 C7 00 01 35 F7 
[RX] (5 bytes) 01 83 02 C0 F1 
[MODBUS] Exception: 0x02 (Gecersiz adres)
0x00C7,,,, EX_02
[TX] 01 03 00 C8 00 0A 44 33 
[RX] (5 bytes) 01 83 02 C0 F1 
[MODBUS] Exception: 0x02 (Gecersiz adres)
[TX] 01 03 00 C8 00 01 05 F4 
[RX] (5 bytes) 01 83 02 C0 F1 
[MODBUS] Exception: 0x02 (Gecersiz adres)
0x00C8,,,, EX_02
[TX] 01 03 00 C9 00 01 54 34 
[RX] (5 bytes) 01 83 02 C0 F1 
[MODBUS] Exception: 0x02 (Gecersiz adres)
0x00C9,,,, EX_02
[TX] 01 03 00 CA 00 01 A4 34 
[RX] (5 bytes) 01 83 02 C0 F1 
[MODBUS] Exception: 0x02 (Gecersiz adres)
0x00CA,,,, EX_02
[TX] 01 03 00 CB 00 01 F5 F4 
[RX] (5 bytes) 01 83 02 C0 F1 
[MODBUS] Exception: 0x02 (Gecersiz adres)
0x00CB,,,, EX_02
[TX] 01 03 00 CC 00 01 44 35 
[RX] (5 bytes) 01 83 02 C0 F1 
[MODBUS] Exception: 0x02 (Gecersiz adres)
0x00CC,,,, EX_02
[TX] 01 03 00 CD 00 01 15 F5 
[RX] (5 bytes) 01 83 02 C0 F1 
[MODBUS] Exception: 0x02 (Gecersiz adres)
0x00CD,,,, EX_02
[TX] 01 03 00 CE 00 01 E5 F5 
[RX] (5 bytes) 01 83 02 C0 F1 
[MODBUS] Exception: 0x02 (Gecersiz adres)
0x00CE,,,, EX_02
[TX] 01 03 00 CF 00 01 B4 35 
[RX] (5 bytes) 01 83 02 C0 F1 
[MODBUS] Exception: 0x02 (Gecersiz adres)
0x00CF,,,, EX_02
[TX] 01 03 00 D0 00 01 85 F3 
[RX] (5 bytes) 01 83 02 C0 F1 
[MODBUS] Exception: 0x02 (Gecersiz adres)
0x00D0,,,, EX_02
[TX] 01 03 00 D1 00 01 D4 33 
[RX] (5 bytes) 01 83 02 C0 F1 
[MODBUS] Exception: 0x02 (Gecersiz adres)
0x00D1,,,, EX_02
[TX] 01 03 00 D2 00 0A 65 F4 
[RX] (5 bytes) 01 83 02 C0 F1 
[MODBUS] Exception: 0x02 (Gecersiz adres)
[TX] 01 03 00 D2 00 01 24 33 
[RX] (5 bytes) 01 83 02 C0 F1 
[MODBUS] Exception: 0x02 (Gecersiz adres)
0x00D2,,,, EX_02
[TX] 01 03 00 D3 00 01 75 F3 
[RX] (5 bytes) 01 83 02 C0 F1 
[MODBUS] Exception: 0x02 (Gecersiz adres)
0x00D3,,,, EX_02
[TX] 01 03 00 D4 00 01 C4 32 
[RX] (5 bytes) 01 83 02 C0 F1 
[MODBUS] Exception: 0x02 (Gecersiz adres)
0x00D4,,,, EX_02
[TX] 01 03 00 D5 00 01 95 F2 
[RX] (5 bytes) 01 83 02 C0 F1 
[MODBUS] Exception: 0x02 (Gecersiz adres)
0x00D5,,,, EX_02
[TX] 01 03 00 D6 00 01 65 F2 
[RX] (5 bytes) 01 83 02 C0 F1 
[MODBUS] Exception: 0x02 (Gecersiz adres)
0x00D6,,,, EX_02
[TX] 01 03 00 D7 00 01 34 32 
[RX] (5 bytes) 01 83 02 C0 F1 
[MODBUS] Exception: 0x02 (Gecersiz adres)
0x00D7,,,, EX_02
[TX] 01 03 00 D8 00 01 04 31 
[RX] (5 bytes) 01 83 02 C0 F1 
[MODBUS] Exception: 0x02 (Gecersiz adres)
0x00D8,,,, EX_02
[TX] 01 03 00 D9 00 01 55 F1 
[RX] (5 bytes) 01 83 02 C0 F1 
[MODBUS] Exception: 0x02 (Gecersiz adres)
0x00D9,,,, EX_02
[TX] 01 03 00 DA 00 01 A5 F1 
[RX] (5 bytes) 01 83 02 C0 F1 
[MODBUS] Exception: 0x02 (Gecersiz adres)
0x00DA,,,, EX_02
[TX] 01 03 00 DB 00 01 F4 31 
[RX] (5 bytes) 01 83 02 C0 F1 
[MODBUS] Exception: 0x02 (Gecersiz adres)
0x00DB,,,, EX_02
[TX] 01 03 00 DC 00 0A 04 37 
[RX] (5 bytes) 01 83 02 C0 F1 
[MODBUS] Exception: 0x02 (Gecersiz adres)
[TX] 01 03 00 DC 00 01 45 F0 
[RX] (5 bytes) 01 83 02 C0 F1 
[MODBUS] Exception: 0x02 (Gecersiz adres)
0x00DC,,,, EX_02
[TX] 01 03 00 DD 00 01 14 30 
[RX] (5 bytes) 01 83 02 C0 F1 
[MODBUS] Exception: 0x02 (Gecersiz adres)
0x00DD,,,, EX_02
[TX] 01 03 00 DE 00 01 E4 30 
[RX] (5 bytes) 01 83 02 C0 F1 
[MODBUS] Exception: 0x02 (Gecersiz adres)
0x00DE,,,, EX_02
[TX] 01 03 00 DF 00 01 B5 F0 
[RX] (5 bytes) 01 83 02 C0 F1 
[MODBUS] Exception: 0x02 (Gecersiz adres)
0x00DF,,,, EX_02
[TX] 01 03 00 E0 00 01 85 FC 
[RX] (5 bytes) 01 83 02 C0 F1 
[MODBUS] Exception: 0x02 (Gecersiz adres)
0x00E0,,,, EX_02
[TX] 01 03 00 E1 00 01 D4 3C 
[RX] (5 bytes) 01 83 02 C0 F1 
[MODBUS] Exception: 0x02 (Gecersiz adres)
0x00E1,,,, EX_02
[TX] 01 03 00 E2 00 01 24 3C 
[RX] (5 bytes) 01 83 02 C0 F1 
[MODBUS] Exception: 0x02 (Gecersiz adres)
0x00E2,,,, EX_02
[TX] 01 03 00 E3 00 01 75 FC 
[RX] (5 bytes) 01 83 02 C0 F1 
[MODBUS] Exception: 0x02 (Gecersiz adres)
0x00E3,,,, EX_02
[TX] 01 03 00 E4 00 01 C4 3D 
[RX] (5 bytes) 01 83 02 C0 F1 
[MODBUS] Exception: 0x02 (Gecersiz adres)
0x00E4,,,, EX_02
[TX] 01 03 00 E5 00 01 95 FD 
[RX] (5 bytes) 01 83 02 C0 F1 
[MODBUS] Exception: 0x02 (Gecersiz adres)
0x00E5,,,, EX_02
[TX] 01 03 00 E6 00 0A 24 3A 
[RX] (5 bytes) 01 83 02 C0 F1 
[MODBUS] Exception: 0x02 (Gecersiz adres)
[TX] 01 03 00 E6 00 01 65 FD 
[RX] (5 bytes) 01 83 02 C0 F1 
[MODBUS] Exception: 0x02 (Gecersiz adres)
0x00E6,,,, EX_02
[TX] 01 03 00 E7 00 01 34 3D 
[RX] (5 bytes) 01 83 02 C0 F1 
[MODBUS] Exception: 0x02 (Gecersiz adres)
0x00E7,,,, EX_02
[TX] 01 03 00 E8 00 01 04 3E 
[RX] (5 bytes) 01 83 02 C0 F1 
[MODBUS] Exception: 0x02 (Gecersiz adres)
0x00E8,,,, EX_02
[TX] 01 03 00 E9 00 01 55 FE 
[RX] (5 bytes) 01 83 02 C0 F1 
[MODBUS] Exception: 0x02 (Gecersiz adres)
0x00E9,,,, EX_02
[TX] 01 03 00 EA 00 01 A5 FE 
[RX] (5 bytes) 01 83 02 C0 F1 
[MODBUS] Exception: 0x02 (Gecersiz adres)
0x00EA,,,, EX_02
[TX] 01 03 00 EB 00 01 F4 3E 
[RX] (5 bytes) 01 83 02 C0 F1 
[MODBUS] Exception: 0x02 (Gecersiz adres)
0x00EB,,,, EX_02
[TX] 01 03 00 EC 00 01 45 FF 
[RX] (5 bytes) 01 83 02 C0 F1 
[MODBUS] Exception: 0x02 (Gecersiz adres)
0x00EC,,,, EX_02
[TX] 01 03 00 ED 00 01 14 3F 
[RX] (5 bytes) 01 83 02 C0 F1 
[MODBUS] Exception: 0x02 (Gecersiz adres)
0x00ED,,,, EX_02
[TX] 01 03 00 EE 00 01 E4 3F 
[RX] (5 bytes) 01 83 02 C0 F1 
[MODBUS] Exception: 0x02 (Gecersiz adres)
0x00EE,,,, EX_02
[TX] 01 03 00 EF 00 01 B5 FF 
[RX] (5 bytes) 01 83 02 C0 F1 
[MODBUS] Exception: 0x02 (Gecersiz adres)
0x00EF,,,, EX_02
[TX] 01 03 00 F0 00 0A C5 FE 
[RX] (5 bytes) 01 83 02 C0 F1 
[MODBUS] Exception: 0x02 (Gecersiz adres)
[TX] 01 03 00 F0 00 01 84 39 
[RX] (5 bytes) 01 83 02 C0 F1 
[MODBUS] Exception: 0x02 (Gecersiz adres)
0x00F0,,,, EX_02
[TX] 01 03 00 F1 00 01 D5 F9 
[RX] (5 bytes) 01 83 02 C0 F1 
[MODBUS] Exception: 0x02 (Gecersiz adres)
0x00F1,,,, EX_02
[TX] 01 03 00 F2 00 01 25 F9 
[RX] (5 bytes) 01 83 02 C0 F1 
[MODBUS] Exception: 0x02 (Gecersiz adres)
0x00F2,,,, EX_02
[TX] 01 03 00 F3 00 01 74 39 
[RX] (5 bytes) 01 83 02 C0 F1 
[MODBUS] Exception: 0x02 (Gecersiz adres)
0x00F3,,,, EX_02
[TX] 01 03 00 F4 00 01 C5 F8 
[RX] (5 bytes) 01 83 02 C0 F1 
[MODBUS] Exception: 0x02 (Gecersiz adres)
0x00F4,,,, EX_02
[TX] 01 03 00 F5 00 01 94 38 
[RX] (5 bytes) 01 83 02 C0 F1 
[MODBUS] Exception: 0x02 (Gecersiz adres)
0x00F5,,,, EX_02
[TX] 01 03 00 F6 00 01 64 38 
[RX] (5 bytes) 01 83 02 C0 F1 
[MODBUS] Exception: 0x02 (Gecersiz adres)
0x00F6,,,, EX_02
[TX] 01 03 00 F7 00 01 35 F8 
[RX] (5 bytes) 01 83 02 C0 F1 
[MODBUS] Exception: 0x02 (Gecersiz adres)
0x00F7,,,, EX_02
[TX] 01 03 00 F8 00 01 05 FB 
[RX] (5 bytes) 01 83 02 C0 F1 
[MODBUS] Exception: 0x02 (Gecersiz adres)
0x00F8,,,, EX_02
[TX] 01 03 00 F9 00 01 54 3B 
[RX] (5 bytes) 01 83 02 C0 F1 
[MODBUS] Exception: 0x02 (Gecersiz adres)
0x00F9,,,, EX_02
[TX] 01 03 00 FA 00 0A E5 FC 
[RX] (5 bytes) 01 83 02 C0 F1 
[MODBUS] Exception: 0x02 (Gecersiz adres)
[TX] 01 03 00 FA 00 01 A4 3B 
[RX] (5 bytes) 01 83 02 C0 F1 
[MODBUS] Exception: 0x02 (Gecersiz adres)
0x00FA,,,, EX_02
[TX] 01 03 00 FB 00 01 F5 FB 
[RX] (5 bytes) 01 83 02 C0 F1 
[MODBUS] Exception: 0x02 (Gecersiz adres)
0x00FB,,,, EX_02
[TX] 01 03 00 FC 00 01 44 3A 
[RX] (5 bytes) 01 83 02 C0 F1 
[MODBUS] Exception: 0x02 (Gecersiz adres)
0x00FC,,,, EX_02
[TX] 01 03 00 FD 00 01 15 FA 
[RX] (5 bytes) 01 83 02 C0 F1 
[MODBUS] Exception: 0x02 (Gecersiz adres)
0x00FD,,,, EX_02
[TX] 01 03 00 FE 00 01 E5 FA 
[RX] (5 bytes) 01 83 02 C0 F1 
[MODBUS] Exception: 0x02 (Gecersiz adres)
0x00FE,,,, EX_02
[TX] 01 03 00 FF 00 01 B4 3A 
[RX] (5 bytes) 01 83 02 C0 F1 
[MODBUS] Exception: 0x02 (Gecersiz adres)
0x00FF,,,, EX_02
[TX] 01 03 01 00 00 01 85 F6 
[RX] (5 bytes) 01 83 02 C0 F1 
[MODBUS] Exception: 0x02 (Gecersiz adres)
0x0100,,,, EX_02
[TX] 01 03 01 01 00 01 D4 36 
[RX] (5 bytes) 01 83 02 C0 F1 
[MODBUS] Exception: 0x02 (Gecersiz adres)
0x0101,,,, EX_02
[TX] 01 03 01 02 00 01 24 36 
[RX] (5 bytes) 01 83 02 C0 F1 
[MODBUS] Exception: 0x02 (Gecersiz adres)
0x0102,,,, EX_02
[TX] 01 03 01 03 00 01 75 F6 
[RX] (5 bytes) 01 83 02 C0 F1 
[MODBUS] Exception: 0x02 (Gecersiz adres)
0x0103,,,, EX_02
# --- ILERLEME: 260/8192 (%3) | 33s | OK:64 EX:196 TO:0 ---
[TX] 01 03 01 04 00 0A 85 F0 
[RX] (5 bytes) 01 83 02 C0 F1 
[MODBUS] Exception: 0x02 (Gecersiz adres)
[TX] 01 03 01 04 00 01 C4 37 
[RX] (5 bytes) 01 83 02 C0 F1 
[MODBUS] Exception: 0x02 (Gecersiz adres)
0x0104,,,, EX_02
[TX] 01 03 01 05 00 01 95 F7 
[RX] (5 bytes) 01 83 02 C0 F1 
[MODBUS] Exception: 0x02 (Gecersiz adres)
0x0105,,,, EX_02
[TX] 01 03 01 06 00 01 65 F7 
[RX] (5 bytes) 01 83 02 C0 F1 
[MODBUS] Exception: 0x02 (Gecersiz adres)
0x0106,,,, EX_02
[TX] 01 03 01 07 00 01 34 37 
[RX] (5 bytes) 01 83 02 C0 F1 
[MODBUS] Exception: 0x02 (Gecersiz adres)
0x0107,,,, EX_02
[TX] 01 03 01 08 00 01 04 34 
[RX] (5 bytes) 01 83 02 C0 F1 
[MODBUS] Exception: 0x02 (Gecersiz adres)
0x0108,,,, EX_02
[TX] 01 03 01 09 00 01 55 F4 
[RX] (5 bytes) 01 83 02 C0 F1 
[MODBUS] Exception: 0x02 (Gecersiz adres)
0x0109,,,, EX_02
[TX] 01 03 01 0A 00 01 A5 F4 
[RX] (5 bytes) 01 83 02 C0 F1 
[MODBUS] Exception: 0x02 (Gecersiz adres)
0x010A,,,, EX_02
[TX] 01 03 01 0B 00 01 F4 34 
[RX] (5 bytes) 01 83 02 C0 F1 
[MODBUS] Exception: 0x02 (Gecersiz adres)
0x010B,,,, EX_02
[TX] 01 03 01 0C 00 01 45 F5 
[RX] (5 bytes) 01 83 02 C0 F1 
[MODBUS] Exception: 0x02 (Gecersiz adres)
0x010C,,,, EX_02
[TX] 01 03 01 0D 00 01 14 35 
[RX] (5 bytes) 01 83 02 C0 F1 
[MODBUS] Exception: 0x02 (Gecersiz adres)
0x010D,,,, EX_02
[TX] 01 03 01 0E 00 0A A5 F2 
[RX] (5 bytes) 01 83 02 C0 F1 
[MODBUS] Exception: 0x02 (Gecersiz adres)
[TX] 01 03 01 0E 00 01 E4 35 
[RX] (5 bytes) 01 83 02 C0 F1 
[MODBUS] Exception: 0x02 (Gecersiz adres)
0x010E,,,, EX_02
[TX] 01 03 01 0F 00 01 B5 F5 
[RX] (5 bytes) 01 83 02 C0 F1 
[MODBUS] Exception: 0x02 (Gecersiz adres)
0x010F,,,, EX_02
[TX] 01 03 01 10 00 01 84 33 
[RX] (5 bytes) 01 83 02 C0 F1 
[MODBUS] Exception: 0x02 (Gecersiz adres)
0x0110,,,, EX_02
[TX] 01 03 01 11 00 01 D5 F3 
[RX] (5 bytes) 01 83 02 C0 F1 
[MODBUS] Exception: 0x02 (Gecersiz adres)
0x0111,,,, EX_02
[TX] 01 03 01 12 00 01 25 F3 
[RX] (5 bytes) 01 83 02 C0 F1 
[MODBUS] Exception: 0x02 (Gecersiz adres)
0x0112,,,, EX_02
[TX] 01 03 01 13 00 01 74 33 
[RX] (5 bytes) 01 83 02 C0 F1 
[MODBUS] Exception: 0x02 (Gecersiz adres)
0x0113,,,, EX_02
[TX] 01 03 01 14 00 01 C5 F2 
[RX] (5 bytes) 01 83 02 C0 F1 
[MODBUS] Exception: 0x02 (Gecersiz adres)
0x0114,,,, EX_02
[TX] 01 03 01 15 00 01 94 32 
[RX] (5 bytes) 01 83 02 C0 F1 
[MODBUS] Exception: 0x02 (Gecersiz adres)
0x0115,,,, EX_02
[TX] 01 03 01 16 00 01 64 32 
[RX] (5 bytes) 01 83 02 C0 F1 
[MODBUS] Exception: 0x02 (Gecersiz adres)
0x0116,,,, EX_02
[TX] 01 03 01 17 00 01 35 F2 
[RX] (5 bytes) 01 83 02 C0 F1 
[MODBUS] Exception: 0x02 (Gecersiz adres)
0x0117,,,, EX_02
[TX] 01 03 01 18 00 0A 44 36 
[RX] (5 bytes) 01 83 02 C0 F1 
[MODBUS] Exception: 0x02 (Gecersiz adres)
[TX] 01 03 01 18 00 01 05 F1 
[RX] (5 bytes) 01 83 02 C0 F1 
[MODBUS] Exception: 0x02 (Gecersiz adres)
0x0118,,,, EX_02
[TX] 01 03 01 19 00 01 54 31 
[RX] (5 bytes) 01 83 02 C0 F1 
[MODBUS] Exception: 0x02 (Gecersiz adres)
0x0119,,,, EX_02
[TX] 01 03 01 1A 00 01 A4 31 
[RX] (5 bytes) 01 83 02 C0 F1 
[MODBUS] Exception: 0x02 (Gecersiz adres)
0x011A,,,, EX_02
[TX] 01 03 01 1B 00 01 F5 F1 
[RX] (5 bytes) 01 83 02 C0 F1 
[MODBUS] Exception: 0x02 (Gecersiz adres)
0x011B,,,, EX_02
[TX] 01 03 01 1C 00 01 44 30 
[RX] (5 bytes) 01 83 02 C0 F1 
[MODBUS] Exception: 0x02 (Gecersiz adres)
0x011C,,,, EX_02
[TX] 01 03 01 1D 00 01 15 F0 
[RX] (5 bytes) 01 83 02 C0 F1 
[MODBUS] Exception: 0x02 (Gecersiz adres)
0x011D,,,, EX_02
[TX] 01 03 01 1E 00 01 E5 F0 
[RX] (5 bytes) 01 83 02 C0 F1 
[MODBUS] Exception: 0x02 (Gecersiz adres)
0x011E,,,, EX_02
[TX] 01 03 01 1F 00 01 B4 30 
[RX] (5 bytes) 01 83 02 C0 F1 
[MODBUS] Exception: 0x02 (Gecersiz adres)
0x011F,,,, EX_02
[TX] 01 03 01 20 00 01 84 3C 
[RX] (5 bytes) 01 83 02 C0 F1 
[MODBUS] Exception: 0x02 (Gecersiz adres)
0x0120,,,, EX_02
[TX] 01 03 01 21 00 01 D5 FC 
[RX] (5 bytes) 01 83 02 C0 F1 
[MODBUS] Exception: 0x02 (Gecersiz adres)
0x0121,,,, EX_02
[TX] 01 03 01 22 00 0A 64 3B 
[RX] (5 bytes) 01 83 02 C0 F1 
[MODBUS] Exception: 0x02 (Gecersiz adres)
[TX] 01 03 01 22 00 01 25 FC 
[RX] (5 bytes) 01 83 02 C0 F1 
[MODBUS] Exception: 0x02 (Gecersiz adres)
0x0122,,,, EX_02
[TX] 01 03 01 23 00 01 74 3C 
[RX] (5 bytes) 01 83 02 C0 F1 
[MODBUS] Exception: 0x02 (Gecersiz adres)
0x0123,,,, EX_02
[TX] 01 03 01 24 00 01 C5 FD 
[RX] (5 bytes) 01 83 02 C0 F1 
[MODBUS] Exception: 0x02 (Gecersiz adres)
0x0124,,,, EX_02
[TX] 01 03 01 25 00 01 94 3D 
[RX] (5 bytes) 01 83 02 C0 F1 
[MODBUS] Exception: 0x02 (Gecersiz adres)
0x0125,,,, EX_02
[TX] 01 03 01 26 00 01 64 3D 
[RX] (5 bytes) 01 83 02 C0 F1 
[MODBUS] Exception: 0x02 (Gecersiz adres)
0x0126,,,, EX_02
[TX] 01 03 01 27 00 01 35 FD 
[RX] (5 bytes) 01 83 02 C0 F1 
[MODBUS] Exception: 0x02 (Gecersiz adres)
0x0127,,,, EX_02
[TX] 01 03 01 28 00 01 05 FE 
[RX] (5 bytes) 01 83 02 C0 F1 
[MODBUS] Exception: 0x02 (Gecersiz adres)
0x0128,,,, EX_02
[TX] 01 03 01 29 00 01 54 3E 
[RX] (5 bytes) 01 83 02 C0 F1 
[MODBUS] Exception: 0x02 (Gecersiz adres)
0x0129,,,, EX_02
[TX] 01 03 01 2A 00 01 A4 3E 
[RX] (5 bytes) 01 83 02 C0 F1 
[MODBUS] Exception: 0x02 (Gecersiz adres)
0x012A,,,, EX_02
[TX] 01 03 01 2B 00 01 F5 FE 
[RX] (5 bytes) 01 83 02 C0 F1 
[MODBUS] Exception: 0x02 (Gecersiz adres)
0x012B,,,, EX_02
[TX] 01 03 01 2C 00 0A 05 F8 
[RX] (5 bytes) 01 83 02 C0 F1 
[MODBUS] Exception: 0x02 (Gecersiz adres)
[TX] 01 03 01 2C 00 01 44 3F 
[RX] (5 bytes) 01 83 02 C0 F1 
[MODBUS] Exception: 0x02 (Gecersiz adres)
0x012C,,,, EX_02
[TX] 01 03 01 2D 00 01 15 FF 
[RX] (5 bytes) 01 83 02 C0 F1 
[MODBUS] Exception: 0x02 (Gecersiz adres)
0x012D,,,, EX_02
[TX] 01 03 01 2E 00 01 E5 FF 
[RX] (5 bytes) 01 83 02 C0 F1 
[MODBUS] Exception: 0x02 (Gecersiz adres)
0x012E,,,, EX_02
[TX] 01 03 01 2F 00 01 B4 3F 
[RX] (5 bytes) 01 83 02 C0 F1 
[MODBUS] Exception: 0x02 (Gecersiz adres)
0x012F,,,, EX_02
[TX] 01 03 01 30 00 01 85 F9 
[RX] (5 bytes) 01 83 02 C0 F1 
[MODBUS] Exception: 0x02 (Gecersiz adres)
0x0130,,,, EX_02
[TX] 01 03 01 31 00 01 D4 39 
[RX] (5 bytes) 01 83 02 C0 F1 
[MODBUS] Exception: 0x02 (Gecersiz adres)
0x0131,,,, EX_02
[TX] 01 03 01 32 00 01 24 39 
[RX] (5 bytes) 01 83 02 C0 F1 
[MODBUS] Exception: 0x02 (Gecersiz adres)
0x0132,,,, EX_02
[TX] 01 03 01 33 00 01 75 F9 
[RX] (5 bytes) 01 83 02 C0 F1 
[MODBUS] Exception: 0x02 (Gecersiz adres)
0x0133,,,, EX_02
[TX] 01 03 01 34 00 01 C4 38 
[RX] (5 bytes) 01 83 02 C0 F1 
[MODBUS] Exception: 0x02 (Gecersiz adres)
0x0134,,,, EX_02
[TX] 01 03 01 35 00 01 95 F8 
[RX] (5 bytes) 01 83 02 C0 F1 
[MODBUS] Exception: 0x02 (Gecersiz adres)
0x0135,,,, EX_02
[TX] 01 03 01 36 00 0A 24 3F 
[RX] (5 bytes) 01 83 02 C0 F1 
[MODBUS] Exception: 0x02 (Gecersiz adres)
[TX] 01 03 01 36 00 01 65 F8 
[RX] (5 bytes) 01 83 02 C0 F1 
[MODBUS] Exception: 0x02 (Gecersiz adres)
0x0136,,,, EX_02
[TX] 01 03 01 37 00 01 34 38 
[RX] (5 bytes) 01 83 02 C0 F1 
[MODBUS] Exception: 0x02 (Gecersiz adres)
0x0137,,,, EX_02
[TX] 01 03 01 38 00 01 04 3B 
[RX] (5 bytes) 01 83 02 C0 F1 
[MODBUS] Exception: 0x02 (Gecersiz adres)
0x0138,,,, EX_02
[TX] 01 03 01 39 00 01 55 FB 
[RX] (5 bytes) 01 83 02 C0 F1 
[MODBUS] Exception: 0x02 (Gecersiz adres)
0x0139,,,, EX_02
[TX] 01 03 01 3A 00 01 A5 FB 
[RX] (5 bytes) 01 83 02 C0 F1 
[MODBUS] Exception: 0x02 (Gecersiz adres)
0x013A,,,, EX_02
[TX] 01 03 01 3B 00 01 F4 3B 
[RX] (5 bytes) 01 83 02 C0 F1 
[MODBUS] Exception: 0x02 (Gecersiz adres)
0x013B,,,, EX_02
[TX] 01 03 01 3C 00 01 45 FA 
[RX] (5 bytes) 01 83 02 C0 F1 
[MODBUS] Exception: 0x02 (Gecersiz adres)
0x013C,,,, EX_02
[TX] 01 03 01 3D 00 01 14 3A 
[RX] (5 bytes) 01 83 02 C0 F1 
[MODBUS] Exception: 0x02 (Gecersiz adres)
0x013D,,,, EX_02
[TX] 01 03 01 3E 00 01 E4 3A 
[RX] (5 bytes) 01 83 02 C0 F1 
[MODBUS] Exception: 0x02 (Gecersiz adres)
0x013E,,,, EX_02
[TX] 01 03 01 3F 00 01 B5 FA 
[RX] (5 bytes) 01 83 02 C0 F1 
[MODBUS] Exception: 0x02 (Gecersiz adres)
0x013F,,,, EX_02
[TX] 01 03 01 40 00 0A C5 E5 
[RX] (5 bytes) 01 83 02 C0 F1 
[MODBUS] Exception: 0x02 (Gecersiz adres)
[TX] 01 03 01 40 00 01 84 22 
[RX] (5 bytes) 01 83 02 C0 F1 
[MODBUS] Exception: 0x02 (Gecersiz adres)
0x0140,,,, EX_02
[TX] 01 03 01 41 00 01 D5 E2 
[RX] (5 bytes) 01 83 02 C0 F1 
[MODBUS] Exception: 0x02 (Gecersiz adres)
0x0141,,,, EX_02
[TX] 01 03 01 42 00 01 25 E2 
[RX] (5 bytes) 01 83 02 C0 F1 
[MODBUS] Exception: 0x02 (Gecersiz adres)
0x0142,,,, EX_02
[TX] 01 03 01 43 00 01 74 22 
[RX] (5 bytes) 01 83 02 C0 F1 
[MODBUS] Exception: 0x02 (Gecersiz adres)
0x0143,,,, EX_02
[TX] 01 03 01 44 00 01 C5 E3 
[RX] (5 bytes) 01 83 02 C0 F1 
[MODBUS] Exception: 0x02 (Gecersiz adres)
0x0144,,,, EX_02
[TX] 01 03 01 45 00 01 94 23 
[RX] (5 bytes) 01 83 02 C0 F1 
[MODBUS] Exception: 0x02 (Gecersiz adres)
0x0145,,,, EX_02
[TX] 01 03 01 46 00 01 64 23 
[RX] (5 bytes) 01 83 02 C0 F1 
[MODBUS] Exception: 0x02 (Gecersiz adres)
0x0146,,,, EX_02
[TX] 01 03 01 47 00 01 35 E3 
[RX] (5 bytes) 01 83 02 C0 F1 
[MODBUS] Exception: 0x02 (Gecersiz adres)
0x0147,,,, EX_02
[TX] 01 03 01 48 00 01 05 E0 
[RX] (5 bytes) 01 83 02 C0 F1 
[MODBUS] Exception: 0x02 (Gecersiz adres)
0x0148,,,, EX_02
[TX] 01 03 01 49 00 01 54 20 
[RX] (5 bytes) 01 83 02 C0 F1 
[MODBUS] Exception: 0x02 (Gecersiz adres)
0x0149,,,, EX_02
[TX] 01 03 01 4A 00 0A E5 E7 
[RX] (5 bytes) 01 83 02 C0 F1 
[MODBUS] Exception: 0x02 (Gecersiz adres)
[TX] 01 03 01 4A 00 01 A4 20 
[RX] (5 bytes) 01 83 02 C0 F1 
[MODBUS] Exception: 0x02 (Gecersiz adres)
0x014A,,,, EX_02
[TX] 01 03 01 4B 00 01 F5 E0 
[RX] (5 bytes) 01 83 02 C0 F1 
[MODBUS] Exception: 0x02 (Gecersiz adres)
0x014B,,,, EX_02
[TX] 01 03 01 4C 00 01 44 21 
[RX] (5 bytes) 01 83 02 C0 F1 
[MODBUS] Exception: 0x02 (Gecersiz adres)
0x014C,,,, EX_02
[TX] 01 03 01 4D 00 01 15 E1 
[RX] (5 bytes) 01 83 02 C0 F1 
[MODBUS] Exception: 0x02 (Gecersiz adres)
0x014D,,,, EX_02
[TX] 01 03 01 4E 00 01 E5 E1 
[RX] (5 bytes) 01 83 02 C0 F1 
[MODBUS] Exception: 0x02 (Gecersiz adres)
0x014E,,,, EX_02
[TX] 01 03 01 4F 00 01 B4 21 
[RX] (5 bytes) 01 83 02 C0 F1 
[MODBUS] Exception: 0x02 (Gecersiz adres)
0x014F,,,, EX_02
[TX] 01 03 01 50 00 01 85 E7 
[RX] (5 bytes) 01 83 02 C0 F1 
[MODBUS] Exception: 0x02 (Gecersiz adres)
0x0150,,,, EX_02
[TX] 01 03 01 51 00 01 D4 27 
[RX] (5 bytes) 01 83 02 C0 F1 
[MODBUS] Exception: 0x02 (Gecersiz adres)
0x0151,,,, EX_02
[TX] 01 03 01 52 00 01 24 27 
[RX] (5 bytes) 01 83 02 C0 F1 
[MODBUS] Exception: 0x02 (Gecersiz adres)
0x0152,,,, EX_02
[TX] 01 03 01 53 00 01 75 E7 
[RX] (5 bytes) 01 83 02 C0 F1 
[MODBUS] Exception: 0x02 (Gecersiz adres)
0x0153,,,, EX_02
[TX] 01 03 01 54 00 0A 85 E1 
[RX] (5 bytes) 01 83 02 C0 F1 
[MODBUS] Exception: 0x02 (Gecersiz adres)
[TX] 01 03 01 54 00 01 C4 26 
[RX] (5 bytes) 01 83 02 C0 F1 
[MODBUS] Exception: 0x02 (Gecersiz adres)
0x0154,,,, EX_02
[TX] 01 03 01 55 00 01 95 E6 
[RX] (5 bytes) 01 83 02 C0 F1 
[MODBUS] Exception: 0x02 (Gecersiz adres)
0x0155,,,, EX_02
[TX] 01 03 01 56 00 01 65 E6 
[RX] (5 bytes) 01 83 02 C0 F1 
[MODBUS] Exception: 0x02 (Gecersiz adres)
0x0156,,,, EX_02
[TX] 01 03 01 57 00 01 34 26 
[RX] (5 bytes) 01 83 02 C0 F1 
[MODBUS] Exception: 0x02 (Gecersiz adres)
0x0157,,,, EX_02
[TX] 01 03 01 58 00 01 04 25 
[RX] (5 bytes) 01 83 02 C0 F1 
[MODBUS] Exception: 0x02 (Gecersiz adres)
0x0158,,,, EX_02
[TX] 01 03 01 59 00 01 55 E5 
[RX] (5 bytes) 01 83 02 C0 F1 
[MODBUS] Exception: 0x02 (Gecersiz adres)
0x0159,,,, EX_02
[TX] 01 03 01 5A 00 01 A5 E5 
[RX] (5 bytes) 01 83 02 C0 F1 
[MODBUS] Exception: 0x02 (Gecersiz adres)
0x015A,,,, EX_02
[TX] 01 03 01 5B 00 01 F4 25 
[RX] (5 bytes) 01 83 02 C0 F1 
[MODBUS] Exception: 0x02 (Gecersiz adres)
0x015B,,,, EX_02
[TX] 01 03 01 5C 00 01 45 E4 
[RX] (5 bytes) 01 83 02 C0 F1 
[MODBUS] Exception: 0x02 (Gecersiz adres)
0x015C,,,, EX_02
[TX] 01 03 01 5D 00 01 14 24 
[RX] (5 bytes) 01 83 02 C0 F1 
[MODBUS] Exception: 0x02 (Gecersiz adres)
0x015D,,,, EX_02
[TX] 01 03 01 5E 00 0A A5 E3 
[RX] (5 bytes) 01 83 02 C0 F1 
[MODBUS] Exception: 0x02 (Gecersiz adres)
[TX] 01 03 01 5E 00 01 E4 24 
[RX] (5 bytes) 01 83 02 C0 F1 
[MODBUS] Exception: 0x02 (Gecersiz adres)
0x015E,,,, EX_02
[TX] 01 03 01 5F 00 01 B5 E4 
[RX] (5 bytes) 01 83 02 C0 F1 
[MODBUS] Exception: 0x02 (Gecersiz adres)
0x015F,,,, EX_02
[TX] 01 03 01 60 00 01 85 E8 
[RX] (5 bytes) 01 83 02 C0 F1 
[MODBUS] Exception: 0x02 (Gecersiz adres)
0x0160,,,, EX_02
[TX] 01 03 01 61 00 01 D4 28 
[RX] (5 bytes) 01 83 02 C0 F1 
[MODBUS] Exception: 0x02 (Gecersiz adres)
0x0161,,,, EX_02
[TX] 01 03 01 62 00 01 24 28 
[RX] (5 bytes) 01 83 02 C0 F1 
[MODBUS] Exception: 0x02 (Gecersiz adres)
0x0162,,,, EX_02
[TX] 01 03 01 63 00 01 75 E8 
[RX] (5 bytes) 01 83 02 C0 F1 
[MODBUS] Exception: 0x02 (Gecersiz adres)
0x0163,,,, EX_02
[TX] 01 03 01 64 00 01 C4 29 
[RX] (5 bytes) 01 83 02 C0 F1 
[MODBUS] Exception: 0x02 (Gecersiz adres)
0x0164,,,, EX_02
[TX] 01 03 01 65 00 01 95 E9 
[RX] (5 bytes) 01 83 02 C0 F1 
[MODBUS] Exception: 0x02 (Gecersiz adres)
0x0165,,,, EX_02
[TX] 01 03 01 66 00 01 65 E9 
[RX] (5 bytes) 01 83 02 C0 F1 
[MODBUS] Exception: 0x02 (Gecersiz adres)
0x0166,,,, EX_02
[TX] 01 03 01 67 00 01 34 29 
[RX] (5 bytes) 01 83 02 C0 F1 
[MODBUS] Exception: 0x02 (Gecersiz adres)
0x0167,,,, EX_02
[TX] 01 03 01 68 00 0A 45 ED 
[RX] (5 bytes) 01 83 02 C0 F1 
[MODBUS] Exception: 0x02 (Gecersiz adres)
[TX] 01 03 01 68 00 01 04 2A 
[RX] (5 bytes) 01 83 02 C0 F1 
[MODBUS] Exception: 0x02 (Gecersiz adres)
0x0168,,,, EX_02
[TX] 01 03 01 69 00 01 55 EA 
[RX] (5 bytes) 01 83 02 C0 F1 
[MODBUS] Exception: 0x02 (Gecersiz adres)
0x0169,,,, EX_02
[TX] 01 03 01 6A 00 01 A5 EA 
[RX] (5 bytes) 01 83 02 C0 F1 
[MODBUS] Exception: 0x02 (Gecersiz adres)
0x016A,,,, EX_02
[TX] 01 03 01 6B 00 01 F4 2A 
[RX] (5 bytes) 01 83 02 C0 F1 
[MODBUS] Exception: 0x02 (Gecersiz adres)
0x016B,,,, EX_02
[TX] 01 03 01 6C 00 01 45 EB 
[RX] (5 bytes) 01 83 02 C0 F1 
[MODBUS] Exception: 0x02 (Gecersiz adres)
0x016C,,,, EX_02
[TX] 01 03 01 6D 00 01 14 2B 
[RX] (5 bytes) 01 83 02 C0 F1 
[MODBUS] Exception: 0x02 (Gecersiz adres)
0x016D,,,, EX_02
[TX] 01 03 01 6E 00 01 E4 2B 
[RX] (5 bytes) 01 83 02 C0 F1 
[MODBUS] Exception: 0x02 (Gecersiz adres)
0x016E,,,, EX_02
[TX] 01 03 01 6F 00 01 B5 EB 
[RX] (5 bytes) 01 83 02 C0 F1 
[MODBUS] Exception: 0x02 (Gecersiz adres)
0x016F,,,, EX_02
[TX] 01 03 01 70 00 01 84 2D 
[RX] (5 bytes) 01 83 02 C0 F1 
[MODBUS] Exception: 0x02 (Gecersiz adres)
0x0170,,,, EX_02
[TX] 01 03 01 71 00 01 D5 ED 
[RX] (5 bytes) 01 83 02 C0 F1 
[MODBUS] Exception: 0x02 (Gecersiz adres)
0x0171,,,, EX_02
[TX] 01 03 01 72 00 0A 64 2A 
[RX] (5 bytes) 01 83 02 C0 F1 
[MODBUS] Exception: 0x02 (Gecersiz adres)
[TX] 01 03 01 72 00 01 25 ED 
[RX] (5 bytes) 01 83 02 C0 F1 
[MODBUS] Exception: 0x02 (Gecersiz adres)
0x0172,,,, EX_02
[TX] 01 03 01 73 00 01 74 2D 
[RX] (5 bytes) 01 83 02 C0 F1 
[MODBUS] Exception: 0x02 (Gecersiz adres)
0x0173,,,, EX_02
[TX] 01 03 01 74 00 01 C5 EC 
[RX] (5 bytes) 01 83 02 C0 F1 
[MODBUS] Exception: 0x02 (Gecersiz adres)
0x0174,,,, EX_02
[TX] 01 03 01 75 00 01 94 2C 
[RX] (5 bytes) 01 83 02 C0 F1 
[MODBUS] Exception: 0x02 (Gecersiz adres)
0x0175,,,, EX_02
[TX] 01 03 01 76 00 01 64 2C 
[RX] (5 bytes) 01 83 02 C0 F1 
[MODBUS] Exception: 0x02 (Gecersiz adres)
0x0176,,,, EX_02
[TX] 01 03 01 77 00 01 35 EC 
[RX] (5 bytes) 01 83 02 C0 F1 
[MODBUS] Exception: 0x02 (Gecersiz adres)
0x0177,,,, EX_02
[TX] 01 03 01 78 00 01 05 EF 
[RX] (5 bytes) 01 83 02 C0 F1 
[MODBUS] Exception: 0x02 (Gecersiz adres)
0x0178,,,, EX_02
[TX] 01 03 01 79 00 01 54 2F 
[RX] (5 bytes) 01 83 02 C0 F1 
[MODBUS] Exception: 0x02 (Gecersiz adres)
0x0179,,,, EX_02
[TX] 01 03 01 7A 00 01 A4 2F 
[RX] (5 bytes) 01 83 02 C0 F1 
[MODBUS] Exception: 0x02 (Gecersiz adres)
0x017A,,,, EX_02
[TX] 01 03 01 7B 00 01 F5 EF 
[RX] (5 bytes) 01 83 02 C0 F1 
[MODBUS] Exception: 0x02 (Gecersiz adres)
0x017B,,,, EX_02
[TX] 01 03 01 7C 00 0A 05 E9 
[RX] (5 bytes) 01 83 02 C0 F1 
[MODBUS] Exception: 0x02 (Gecersiz adres)
[TX] 01 03 01 7C 00 01 44 2E 
[RX] (5 bytes) 01 83 02 C0 F1 
[MODBUS] Exception: 0x02 (Gecersiz adres)
0x017C,,,, EX_02
[TX] 01 03 01 7D 00 01 15 EE 
[RX] (5 bytes) 01 83 02 C0 F1 
[MODBUS] Exception: 0x02 (Gecersiz adres)
0x017D,,,, EX_02
[TX] 01 03 01 7E 00 01 E5 EE 
[RX] (5 bytes) 01 83 02 C0 F1 
[MODBUS] Exception: 0x02 (Gecersiz adres)
0x017E,,,, EX_02
[TX] 01 03 01 7F 00 01 B4 2E 
[RX] (5 bytes) 01 83 02 C0 F1 
[MODBUS] Exception: 0x02 (Gecersiz adres)
0x017F,,,, EX_02
[TX] 01 03 01 80 00 01 84 1E 
[RX] (5 bytes) 01 83 02 C0 F1 
[MODBUS] Exception: 0x02 (Gecersiz adres)
0x0180,,,, EX_02
[TX] 01 03 01 81 00 01 D5 DE 
[RX] (5 bytes) 01 83 02 C0 F1 
[MODBUS] Exception: 0x02 (Gecersiz adres)
0x0181,,,, EX_02
[TX] 01 03 01 82 00 01 25 DE 
[RX] (5 bytes) 01 83 02 C0 F1 
[MODBUS] Exception: 0x02 (Gecersiz adres)
0x0182,,,, EX_02
[TX] 01 03 01 83 00 01 74 1E 
[RX] (5 bytes) 01 83 02 C0 F1 
[MODBUS] Exception: 0x02 (Gecersiz adres)
0x0183,,,, EX_02
[TX] 01 03 01 84 00 01 C5 DF 
[RX] (5 bytes) 01 83 02 C0 F1 
[MODBUS] Exception: 0x02 (Gecersiz adres)
0x0184,,,, EX_02
[TX] 01 03 01 85 00 01 94 1F 
[RX] (5 bytes) 01 83 02 C0 F1 
[MODBUS] Exception: 0x02 (Gecersiz adres)
0x0185,,,, EX_02
[TX] 01 03 01 86 00 0A 25 D8 
[RX] (5 bytes) 01 83 02 C0 F1 
[MODBUS] Exception: 0x02 (Gecersiz adres)
[TX] 01 03 01 86 00 01 64 1F 
[RX] (5 bytes) 01 83 02 C0 F1 
[MODBUS] Exception: 0x02 (Gecersiz adres)
0x0186,,,, EX_02
[TX] 01 03 01 87 00 01 35 DF 
[RX] (5 bytes) 01 83 02 C0 F1 
[MODBUS] Exception: 0x02 (Gecersiz adres)
0x0187,,,, EX_02
[TX] 01 03 01 88 00 01 05 DC 
[RX] (5 bytes) 01 83 02 C0 F1 
[MODBUS] Exception: 0x02 (Gecersiz adres)
0x0188,,,, EX_02
[TX] 01 03 01 89 00 01 54 1C 
[RX] (5 bytes) 01 83 02 C0 F1 
[MODBUS] Exception: 0x02 (Gecersiz adres)
0x0189,,,, EX_02
[TX] 01 03 01 8A 00 01 A4 1C 
[RX] (5 bytes) 01 83 02 C0 F1 
[MODBUS] Exception: 0x02 (Gecersiz adres)
0x018A,,,, EX_02
[TX] 01 03 01 8B 00 01 F5 DC 
[RX] (5 bytes) 01 83 02 C0 F1 
[MODBUS] Exception: 0x02 (Gecersiz adres)
0x018B,,,, EX_02
[TX] 01 03 01 8C 00 01 44 1D 
[RX] (5 bytes) 01 83 02 C0 F1 
[MODBUS] Exception: 0x02 (Gecersiz adres)
0x018C,,,, EX_02
[TX] 01 03 01 8D 00 01 15 DD 
[RX] (5 bytes) 01 83 02 C0 F1 
[MODBUS] Exception: 0x02 (Gecersiz adres)
0x018D,,,, EX_02
[TX] 01 03 01 8E 00 01 E5 DD 
[RX] (5 bytes) 01 83 02 C0 F1 
[MODBUS] Exception: 0x02 (Gecersiz adres)
0x018E,,,, EX_02
[TX] 01 03 01 8F 00 01 B4 1D 
[RX] (5 bytes) 01 83 02 C0 F1 
[MODBUS] Exception: 0x02 (Gecersiz adres)
0x018F,,,, EX_02
[TX] 01 03 01 90 00 0A C4 1C 
[RX] (5 bytes) 01 83 02 C0 F1 
[MODBUS] Exception: 0x02 (Gecersiz adres)
[TX] 01 03 01 90 00 01 85 DB 
[RX] (5 bytes) 01 83 02 C0 F1 
[MODBUS] Exception: 0x02 (Gecersiz adres)
0x0190,,,, EX_02
[TX] 01 03 01 91 00 01 D4 1B 
[RX] (5 bytes) 01 83 02 C0 F1 
[MODBUS] Exception: 0x02 (Gecersiz adres)
0x0191,,,, EX_02
[TX] 01 03 01 92 00 01 24 1B 
[RX] (5 bytes) 01 83 02 C0 F1 
[MODBUS] Exception: 0x02 (Gecersiz adres)
0x0192,,,, EX_02
[TX] 01 03 01 93 00 01 75 DB 
[RX] (5 bytes) 01 83 02 C0 F1 
[MODBUS] Exception: 0x02 (Gecersiz adres)
0x0193,,,, EX_02
[TX] 01 03 01 94 00 01 C4 1A 
[RX] (5 bytes) 01 83 02 C0 F1 
[MODBUS] Exception: 0x02 (Gecersiz adres)
0x0194,,,, EX_02
[TX] 01 03 01 95 00 01 95 DA 
[RX] (5 bytes) 01 83 02 C0 F1 
[MODBUS] Exception: 0x02 (Gecersiz adres)
0x0195,,,, EX_02
[TX] 01 03 01 96 00 01 65 DA 
[RX] (5 bytes) 01 83 02 C0 F1 
[MODBUS] Exception: 0x02 (Gecersiz adres)
0x0196,,,, EX_02
[TX] 01 03 01 97 00 01 34 1A 
[RX] (5 bytes) 01 83 02 C0 F1 
[MODBUS] Exception: 0x02 (Gecersiz adres)
0x0197,,,, EX_02
[TX] 01 03 01 98 00 01 04 19 
[RX] (5 bytes) 01 83 02 C0 F1 
[MODBUS] Exception: 0x02 (Gecersiz adres)
0x0198,,,, EX_02
[TX] 01 03 01 99 00 01 55 D9 
[RX] (5 bytes) 01 83 02 C0 F1 
[MODBUS] Exception: 0x02 (Gecersiz adres)
0x0199,,,, EX_02
[TX] 01 03 01 9A 00 0A E4 1E 
[RX] (5 bytes) 01 83 02 C0 F1 
[MODBUS] Exception: 0x02 (Gecersiz adres)
[TX] 01 03 01 9A 00 01 A5 D9 
[RX] (5 bytes) 01 83 02 C0 F1 
[MODBUS] Exception: 0x02 (Gecersiz adres)
0x019A,,,, EX_02
[TX] 01 03 01 9B 00 01 F4 19 
[RX] (5 bytes) 01 83 02 C0 F1 
[MODBUS] Exception: 0x02 (Gecersiz adres)
0x019B,,,, EX_02
[TX] 01 03 01 9C 00 01 45 D8 
[RX] (5 bytes) 01 83 02 C0 F1 
[MODBUS] Exception: 0x02 (Gecersiz adres)
0x019C,,,, EX_02
[TX] 01 03 01 9D 00 01 14 18 
[RX] (5 bytes) 01 83 02 C0 F1 
[MODBUS] Exception: 0x02 (Gecersiz adres)
0x019D,,,, EX_02
[TX] 01 03 01 9E 00 01 E4 18 
[RX] (5 bytes) 01 83 02 C0 F1 
[MODBUS] Exception: 0x02 (Gecersiz adres)
0x019E,,,, EX_02
[TX] 01 03 01 9F 00 01 B5 D8 
[RX] (5 bytes) 01 83 02 C0 F1 
[MODBUS] Exception: 0x02 (Gecersiz adres)
0x019F,,,, EX_02
[TX] 01 03 01 A0 00 01 85 D4 
[RX] (5 bytes) 01 83 02 C0 F1 
[MODBUS] Exception: 0x02 (Gecersiz adres)
0x01A0,,,, EX_02
[TX] 01 03 01 A1 00 01 D4 14 
[RX] (5 bytes) 01 83 02 C0 F1 
[MODBUS] Exception: 0x02 (Gecersiz adres)
0x01A1,,,, EX_02
[TX] 01 03 01 A2 00 01 24 14 
[RX] (5 bytes) 01 83 02 C0 F1 
[MODBUS] Exception: 0x02 (Gecersiz adres)
0x01A2,,,, EX_02
[TX] 01 03 01 A3 00 01 75 D4 
[RX] (5 bytes) 01 83 02 C0 F1 
[MODBUS] Exception: 0x02 (Gecersiz adres)
0x01A3,,,, EX_02
[TX] 01 03 01 A4 00 0A 85 D2 
[RX] (5 bytes) 01 83 02 C0 F1 
[MODBUS] Exception: 0x02 (Gecersiz adres)
[TX] 01 03 01 A4 00 01 C4 15 
[RX] (5 bytes) 01 83 02 C0 F1 
[MODBUS] Exception: 0x02 (Gecersiz adres)
0x01A4,,,, EX_02
[TX] 01 03 01 A5 00 01 95 D5 
[RX] (5 bytes) 01 83 02 C0 F1 
[MODBUS] Exception: 0x02 (Gecersiz adres)
0x01A5,,,, EX_02
[TX] 01 03 01 A6 00 01 65 D5 
[RX] (5 bytes) 01 83 02 C0 F1 
[MODBUS] Exception: 0x02 (Gecersiz adres)
0x01A6,,,, EX_02
[TX] 01 03 01 A7 00 01 34 15 
[RX] (5 bytes) 01 83 02 C0 F1 
[MODBUS] Exception: 0x02 (Gecersiz adres)
0x01A7,,,, EX_02
[TX] 01 03 01 A8 00 01 04 16 
[RX] (5 bytes) 01 83 02 C0 F1 
[MODBUS] Exception: 0x02 (Gecersiz adres)
0x01A8,,,, EX_02
[TX] 01 03 01 A9 00 01 55 D6 
[RX] (5 bytes) 01 83 02 C0 F1 
[MODBUS] Exception: 0x02 (Gecersiz adres)
0x01A9,,,, EX_02
[TX] 01 03 01 AA 00 01 A5 D6 
[RX] (5 bytes) 01 83 02 C0 F1 
[MODBUS] Exception: 0x02 (Gecersiz adres)
0x01AA,,,, EX_02
[TX] 01 03 01 AB 00 01 F4 16 
[RX] (5 bytes) 01 83 02 C0 F1 
[MODBUS] Exception: 0x02 (Gecersiz adres)
0x01AB,,,, EX_02
[TX] 01 03 01 AC 00 01 45 D7 
[RX] (5 bytes) 01 83 02 C0 F1 
[MODBUS] Exception: 0x02 (Gecersiz adres)
0x01AC,,,, EX_02
[TX] 01 03 01 AD 00 01 14 17 
[RX] (5 bytes) 01 83 02 C0 F1 
[MODBUS] Exception: 0x02 (Gecersiz adres)
0x01AD,,,, EX_02
[TX] 01 03 01 AE 00 0A A5 D0 
[RX] (5 bytes) 01 83 02 C0 F1 
[MODBUS] Exception: 0x02 (Gecersiz adres)
[TX] 01 03 01 AE 00 01 E4 17 
[RX] (5 bytes) 01 83 02 C0 F1 
[MODBUS] Exception: 0x02 (Gecersiz adres)
0x01AE,,,, EX_02
[TX] 01 03 01 AF 00 01 B5 D7 
[RX] (5 bytes) 01 83 02 C0 F1 
[MODBUS] Exception: 0x02 (Gecersiz adres)
0x01AF,,,, EX_02
[TX] 01 03 01 B0 00 01 84 11 
[RX] (5 bytes) 01 83 02 C0 F1 
[MODBUS] Exception: 0x02 (Gecersiz adres)
0x01B0,,,, EX_02
[TX] 01 03 01 B1 00 01 D5 D1 
[RX] (5 bytes) 01 83 02 C0 F1 
[MODBUS] Exception: 0x02 (Gecersiz adres)
0x01B1,,,, EX_02
[TX] 01 03 01 B2 00 01 25 D1 
[RX] (5 bytes) 01 83 02 C0 F1 
[MODBUS] Exception: 0x02 (Gecersiz adres)
0x01B2,,,, EX_02
[TX] 01 03 01 B3 00 01 74 11 
[RX] (5 bytes) 01 83 02 C0 F1 
[MODBUS] Exception: 0x02 (Gecersiz adres)
0x01B3,,,, EX_02
[TX] 01 03 01 B4 00 01 C5 D0 
[RX] (5 bytes) 01 83 02 C0 F1 
[MODBUS] Exception: 0x02 (Gecersiz adres)
0x01B4,,,, EX_02
[TX] 01 03 01 B5 00 01 94 10 
[RX] (5 bytes) 01 83 02 C0 F1 
[MODBUS] Exception: 0x02 (Gecersiz adres)
0x01B5,,,, EX_02
[TX] 01 03 01 B6 00 01 64 10 
[RX] (5 bytes) 01 83 02 C0 F1 
[MODBUS] Exception: 0x02 (Gecersiz adres)
0x01B6,,,, EX_02
[TX] 01 03 01 B7 00 01 35 D0 
[RX] (5 bytes) 01 83 02 C0 F1 
[MODBUS] Exception: 0x02 (Gecersiz adres)
0x01B7,,,, EX_02
[TX] 01 03 01 B8 00 0A 44 14 
[RX] (5 bytes) 01 83 02 C0 F1 
[MODBUS] Exception: 0x02 (Gecersiz adres)
[TX] 01 03 01 B8 00 01 05 D3 
[RX] (5 bytes) 01 83 02 C0 F1 
[MODBUS] Exception: 0x02 (Gecersiz adres)
0x01B8,,,, EX_02
[TX] 01 03 01 B9 00 01 54 13 
[RX] (5 bytes) 01 83 02 C0 F1 
[MODBUS] Exception: 0x02 (Gecersiz adres)
0x01B9,,,, EX_02
[TX] 01 03 01 BA 00 01 A4 13 
[RX] (5 bytes) 01 83 02 C0 F1 
[MODBUS] Exception: 0x02 (Gecersiz adres)
0x01BA,,,, EX_02
[TX] 01 03 01 BB 00 01 F5 D3 
[RX] (5 bytes) 01 83 02 C0 F1 
[MODBUS] Exception: 0x02 (Gecersiz adres)
0x01BB,,,, EX_02
[TX] 01 03 01 BC 00 01 44 12 
[RX] (5 bytes) 01 83 02 C0 F1 
[MODBUS] Exception: 0x02 (Gecersiz adres)
0x01BC,,,, EX_02
[TX] 01 03 01 BD 00 01 15 D2 
[RX] (5 bytes) 01 83 02 C0 F1 
[MODBUS] Exception: 0x02 (Gecersiz adres)
0x01BD,,,, EX_02
[TX] 01 03 01 BE 00 01 E5 D2 
[RX] (5 bytes) 01 83 02 C0 F1 
[MODBUS] Exception: 0x02 (Gecersiz adres)
0x01BE,,,, EX_02
[TX] 01 03 01 BF 00 01 B4 12 
[RX] (5 bytes) 01 83 02 C0 F1 
[MODBUS] Exception: 0x02 (Gecersiz adres)
0x01BF,,,, EX_02
[TX] 01 03 01 C0 00 01 85 CA 
[RX] (5 bytes) 01 83 02 C0 F1 
[MODBUS] Exception: 0x02 (Gecersiz adres)
0x01C0,,,, EX_02
[TX] 01 03 01 C1 00 01 D4 0A 
[RX] (5 bytes) 01 83 02 C0 F1 
[MODBUS] Exception: 0x02 (Gecersiz adres)
0x01C1,,,, EX_02
[TX] 01 03 01 C2 00 0A 65 CD 
[RX] (5 bytes) 01 83 02 C0 F1 
[MODBUS] Exception: 0x02 (Gecersiz adres)
[TX] 01 03 01 C2 00 01 24 0A 
[RX] (5 bytes) 01 83 02 C0 F1 
[MODBUS] Exception: 0x02 (Gecersiz adres)
0x01C2,,,, EX_02
[TX] 01 03 01 C3 00 01 75 CA 
[RX] (5 bytes) 01 83 02 C0 F1 
[MODBUS] Exception: 0x02 (Gecersiz adres)
0x01C3,,,, EX_02
[TX] 01 03 01 C4 00 01 C4 0B 
[RX] (5 bytes) 01 83 02 C0 F1 
[MODBUS] Exception: 0x02 (Gecersiz adres)
0x01C4,,,, EX_02
[TX] 01 03 01 C5 00 01 95 CB 
[RX] (5 bytes) 01 83 02 C0 F1 
[MODBUS] Exception: 0x02 (Gecersiz adres)
0x01C5,,,, EX_02
[TX] 01 03 01 C6 00 01 65 CB 
[RX] (5 bytes) 01 83 02 C0 F1 
[MODBUS] Exception: 0x02 (Gecersiz adres)
0x01C6,,,, EX_02
[TX] 01 03 01 C7 00 01 34 0B 
[RX] (5 bytes) 01 83 02 C0 F1 
[MODBUS] Exception: 0x02 (Gecersiz adres)
0x01C7,,,, EX_02
[TX] 01 03 01 C8 00 01 04 08 
[RX] (5 bytes) 01 83 02 C0 F1 
[MODBUS] Exception: 0x02 (Gecersiz adres)
0x01C8,,,, EX_02
[TX] 01 03 01 C9 00 01 55 C8 
[RX] (5 bytes) 01 83 02 C0 F1 
[MODBUS] Exception: 0x02 (Gecersiz adres)
0x01C9,,,, EX_02
[TX] 01 03 01 CA 00 01 A5 C8 
[RX] (5 bytes) 01 83 02 C0 F1 
[MODBUS] Exception: 0x02 (Gecersiz adres)
0x01CA,,,, EX_02
[TX] 01 03 01 CB 00 01 F4 08 
[RX] (5 bytes) 01 83 02 C0 F1 
[MODBUS] Exception: 0x02 (Gecersiz adres)
0x01CB,,,, EX_02
[TX] 01 03 01 CC 00 0A 04 0E 
[RX] (5 bytes) 01 83 02 C0 F1 
[MODBUS] Exception: 0x02 (Gecersiz adres)
[TX] 01 03 01 CC 00 01 45 C9 
[RX] (5 bytes) 01 83 02 C0 F1 
[MODBUS] Exception: 0x02 (Gecersiz adres)
0x01CC,,,, EX_02
[TX] 01 03 01 CD 00 01 14 09 
[RX] (5 bytes) 01 83 02 C0 F1 
[MODBUS] Exception: 0x02 (Gecersiz adres)
0x01CD,,,, EX_02
[TX] 01 03 01 CE 00 01 E4 09 
[RX] (5 bytes) 01 83 02 C0 F1 
[MODBUS] Exception: 0x02 (Gecersiz adres)
0x01CE,,,, EX_02
[TX] 01 03 01 CF 00 01 B5 C9 
[RX] (5 bytes) 01 83 02 C0 F1 
[MODBUS] Exception: 0x02 (Gecersiz adres)
0x01CF,,,, EX_02
[TX] 01 03 01 D0 00 01 84 0F 
[RX] (5 bytes) 01 83 02 C0 F1 
[MODBUS] Exception: 0x02 (Gecersiz adres)
0x01D0,,,, EX_02
[TX] 01 03 01 D1 00 01 D5 CF 
[RX] (5 bytes) 01 83 02 C0 F1 
[MODBUS] Exception: 0x02 (Gecersiz adres)
0x01D1,,,, EX_02
[TX] 01 03 01 D2 00 01 25 CF 
[RX] (5 bytes) 01 83 02 C0 F1 
[MODBUS] Exception: 0x02 (Gecersiz adres)
0x01D2,,,, EX_02
[TX] 01 03 01 D3 00 01 74 0F 
[RX] (5 bytes) 01 83 02 C0 F1 
[MODBUS] Exception: 0x02 (Gecersiz adres)
0x01D3,,,, EX_02
[TX] 01 03 01 D4 00 01 C5 CE 
[RX] (5 bytes) 01 83 02 C0 F1 
[MODBUS] Exception: 0x02 (Gecersiz adres)
0x01D4,,,, EX_02
[TX] 01 03 01 D5 00 01 94 0E 
[RX] (5 bytes) 01 83 02 C0 F1 
[MODBUS] Exception: 0x02 (Gecersiz adres)
0x01D5,,,, EX_02
[TX] 01 03 01 D6 00 0A 25 C9 
[RX] (5 bytes) 01 83 02 C0 F1 
[MODBUS] Exception: 0x02 (Gecersiz adres)
[TX] 01 03 01 D6 00 01 64 0E 
[RX] (5 bytes) 01 83 02 C0 F1 
[MODBUS] Exception: 0x02 (Gecersiz adres)
0x01D6,,,, EX_02
[TX] 01 03 01 D7 00 01 35 CE 
[RX] (5 bytes) 01 83 02 C0 F1 
[MODBUS] Exception: 0x02 (Gecersiz adres)
0x01D7,,,, EX_02
[TX] 01 03 01 D8 00 01 05 CD 
[RX] (5 bytes) 01 83 02 C0 F1 
[MODBUS] Exception: 0x02 (Gecersiz adres)
0x01D8,,,, EX_02
[TX] 01 03 01 D9 00 01 54 0D 
[RX] (5 bytes) 01 83 02 C0 F1 
[MODBUS] Exception: 0x02 (Gecersiz adres)
0x01D9,,,, EX_02
[TX] 01 03 01 DA 00 01 A4 0D 
[RX] (5 bytes) 01 83 02 C0 F1 
[MODBUS] Exception: 0x02 (Gecersiz adres)
0x01DA,,,, EX_02
[TX] 01 03 01 DB 00 01 F5 CD 
[RX] (5 bytes) 01 83 02 C0 F1 
[MODBUS] Exception: 0x02 (Gecersiz adres)
0x01DB,,,, EX_02
[TX] 01 03 01 DC 00 01 44 0C 
[RX] (5 bytes) 01 83 02 C0 F1 
[MODBUS] Exception: 0x02 (Gecersiz adres)
0x01DC,,,, EX_02
[TX] 01 03 01 DD 00 01 15 CC 
[RX] (5 bytes) 01 83 02 C0 F1 
[MODBUS] Exception: 0x02 (Gecersiz adres)
0x01DD,,,, EX_02
[TX] 01 03 01 DE 00 01 E5 CC 
[RX] (5 bytes) 01 83 02 C0 F1 
[MODBUS] Exception: 0x02 (Gecersiz adres)
0x01DE,,,, EX_02
[TX] 01 03 01 DF 00 01 B4 0C 
[RX] (5 bytes) 01 83 02 C0 F1 
[MODBUS] Exception: 0x02 (Gecersiz adres)
0x01DF,,,, EX_02
[TX] 01 03 01 E0 00 0A C5 C7 
[RX] (5 bytes) 01 83 02 C0 F1 
[MODBUS] Exception: 0x02 (Gecersiz adres)
[TX] 01 03 01 E0 00 01 84 00 
[RX] (5 bytes) 01 83 02 C0 F1 
[MODBUS] Exception: 0x02 (Gecersiz adres)
0x01E0,,,, EX_02
[TX] 01 03 01 E1 00 01 D5 C0 
[RX] (5 bytes) 01 83 02 C0 F1 
[MODBUS] Exception: 0x02 (Gecersiz adres)
0x01E1,,,, EX_02
[TX] 01 03 01 E2 00 01 25 C0 
[RX] (5 bytes) 01 83 02 C0 F1 
[MODBUS] Exception: 0x02 (Gecersiz adres)
0x01E2,,,, EX_02
[TX] 01 03 01 E3 00 01 74 00 
[RX] (5 bytes) 01 83 02 C0 F1 
[MODBUS] Exception: 0x02 (Gecersiz adres)
0x01E3,,,, EX_02
[TX] 01 03 01 E4 00 01 C5 C1 
[RX] (5 bytes) 01 83 02 C0 F1 
[MODBUS] Exception: 0x02 (Gecersiz adres)
0x01E4,,,, EX_02
[TX] 01 03 01 E5 00 01 94 01 
[RX] (5 bytes) 01 83 02 C0 F1 
[MODBUS] Exception: 0x02 (Gecersiz adres)
0x01E5,,,, EX_02
[TX] 01 03 01 E6 00 01 64 01 
[RX] (5 bytes) 01 83 02 C0 F1 
[MODBUS] Exception: 0x02 (Gecersiz adres)
0x01E6,,,, EX_02
[TX] 01 03 01 E7 00 01 35 C1 
[RX] (5 bytes) 01 83 02 C0 F1 
[MODBUS] Exception: 0x02 (Gecersiz adres)
0x01E7,,,, EX_02
[TX] 01 03 01 E8 00 01 05 C2 
[RX] (5 bytes) 01 83 02 C0 F1 
[MODBUS] Exception: 0x02 (Gecersiz adres)
0x01E8,,,, EX_02
[TX] 01 03 01 E9 00 01 54 02 
[RX] (5 bytes) 01 83 02 C0 F1 
[MODBUS] Exception: 0x02 (Gecersiz adres)
0x01E9,,,, EX_02
[TX] 01 03 01 EA 00 0A E5 C5 
[RX] (5 bytes) 01 83 02 C0 F1 
[MODBUS] Exception: 0x02 (Gecersiz adres)
[TX] 01 03 01 EA 00 01 A4 02 
[RX] (5 bytes) 01 83 02 C0 F1 
[MODBUS] Exception: 0x02 (Gecersiz adres)
0x01EA,,,, EX_02
[TX] 01 03 01 EB 00 01 F5 C2 
[RX] (5 bytes) 01 83 02 C0 F1 
[MODBUS] Exception: 0x02 (Gecersiz adres)
0x01EB,,,, EX_02
[TX] 01 03 01 EC 00 01 44 03 
[RX] (5 bytes) 01 83 02 C0 F1 
[MODBUS] Exception: 0x02 (Gecersiz adres)
0x01EC,,,, EX_02
[TX] 01 03 01 ED 00 01 15 C3 
[RX] (5 bytes) 01 83 02 C0 F1 
[MODBUS] Exception: 0x02 (Gecersiz adres)
0x01ED,,,, EX_02
[TX] 01 03 01 EE 00 01 E5 C3 
[RX] (5 bytes) 01 83 02 C0 F1 
[MODBUS] Exception: 0x02 (Gecersiz adres)
0x01EE,,,, EX_02
[TX] 01 03 01 EF 00 01 B4 03 
[RX] (5 bytes) 01 83 02 C0 F1 
[MODBUS] Exception: 0x02 (Gecersiz adres)
0x01EF,,,, EX_02
[TX] 01 03 01 F0 00 01 85 C5 
[RX] (5 bytes) 01 83 02 C0 F1 
[MODBUS] Exception: 0x02 (Gecersiz adres)
0x01F0,,,, EX_02
[TX] 01 03 01 F1 00 01 D4 05 
[RX] (5 bytes) 01 83 02 C0 F1 
[MODBUS] Exception: 0x02 (Gecersiz adres)
0x01F1,,,, EX_02
[TX] 01 03 01 F2 00 01 24 05 
[RX] (5 bytes) 01 83 02 C0 F1 
[MODBUS] Exception: 0x02 (Gecersiz adres)
0x01F2,,,, EX_02
[TX] 01 03 01 F3 00 01 75 C5 
[RX] (5 bytes) 01 83 02 C0 F1 
[MODBUS] Exception: 0x02 (Gecersiz adres)
0x01F3,,,, EX_02
[TX] 01 03 01 F4 00 0A 85 C3 
[RX] (5 bytes) 01 83 02 C0 F1 
[MODBUS] Exception: 0x02 (Gecersiz adres)
[TX] 01 03 01 F4 00 01 C4 04 
[RX] (5 bytes) 01 83 02 C0 F1 
[MODBUS] Exception: 0x02 (Gecersiz adres)
0x01F4,,,, EX_02
[TX] 01 03 01 F5 00 01 95 C4 
[RX] (5 bytes) 01 83 02 C0 F1 
[MODBUS] Exception: 0x02 (Gecersiz adres)
0x01F5,,,, EX_02
[TX] 01 03 01 F6 00 01 65 C4 
[RX] (5 bytes) 01 83 02 C0 F1 
[MODBUS] Exception: 0x02 (Gecersiz adres)
0x01F6,,,, EX_02
[TX] 01 03 01 F7 00 01 34 04 
[RX] (5 bytes) 01 83 02 C0 F1 
[MODBUS] Exception: 0x02 (Gecersiz adres)
0x01F7,,,, EX_02
[TX] 01 03 01 F8 00 01 04 07 
[RX] (5 bytes) 01 83 02 C0 F1 
[MODBUS] Exception: 0x02 (Gecersiz adres)
0x01F8,,,, EX_02
[TX] 01 03 01 F9 00 01 55 C7 
[RX] (5 bytes) 01 83 02 C0 F1 
[MODBUS] Exception: 0x02 (Gecersiz adres)
0x01F9,,,, EX_02
[TX] 01 03 01 FA 00 01 A5 C7 
[RX] (5 bytes) 01 83 02 C0 F1 
[MODBUS] Exception: 0x02 (Gecersiz adres)
0x01FA,,,, EX_02
[TX] 01 03 01 FB 00 01 F4 07 
[RX] (5 bytes) 01 83 02 C0 F1 
[MODBUS] Exception: 0x02 (Gecersiz adres)
0x01FB,,,, EX_02
[TX] 01 03 01 FC 00 01 45 C6 
[RX] (5 bytes) 01 83 02 C0 F1 
[MODBUS] Exception: 0x02 (Gecersiz adres)
0x01FC,,,, EX_02
[TX] 01 03 01 FD 00 01 14 06 
[RX] (5 bytes) 01 83 02 C0 F1 
[MODBUS] Exception: 0x02 (Gecersiz adres)
0x01FD,,,, EX_02
[TX] 01 03 01 FE 00 0A A5 C1 
[RX] (5 bytes) 01 83 02 C0 F1 
[MODBUS] Exception: 0x02 (Gecersiz adres)
[TX] 01 03 01 FE 00 01 E4 06 
[RX] (5 bytes) 01 83 02 C0 F1 
[MODBUS] Exception: 0x02 (Gecersiz adres)
0x01FE,,,, EX_02
[TX] 01 03 01 FF 00 01 B5 C6 
[RX] (5 bytes) 01 83 02 C0 F1 
[MODBUS] Exception: 0x02 (Gecersiz adres)
0x01FF,,,, EX_02
[TX] 01 03 02 00 00 01 85 B2 
[RX] (5 bytes) 01 83 02 C0 F1 
[MODBUS] Exception: 0x02 (Gecersiz adres)
0x0200,,,, EX_02
[TX] 01 03 02 01 00 01 D4 72 
[RX] (5 bytes) 01 83 02 C0 F1 
[MODBUS] Exception: 0x02 (Gecersiz adres)
0x0201,,,, EX_02
[TX] 01 03 02 02 00 01 24 72 
[RX] (5 bytes) 01 83 02 C0 F1 
[MODBUS] Exception: 0x02 (Gecersiz adres)
0x0202,,,, EX_02
[TX] 01 03 02 03 00 01 75 B2 
[RX] (5 bytes) 01 83 02 C0 F1 
[MODBUS] Exception: 0x02 (Gecersiz adres)
0x0203,,,, EX_02
[TX] 01 03 02 04 00 01 C4 73 
[RX] (5 bytes) 01 83 02 C0 F1 
[MODBUS] Exception: 0x02 (Gecersiz adres)
0x0204,,,, EX_02
[TX] 01 03 02 05 00 01 95 B3 
[RX] (5 bytes) 01 83 02 C0 F1 
[MODBUS] Exception: 0x02 (Gecersiz adres)
0x0205,,,, EX_02
[TX] 01 03 02 06 00 01 65 B3 
[RX] (5 bytes) 01 83 02 C0 F1 
[MODBUS] Exception: 0x02 (Gecersiz adres)
0x0206,,,, EX_02
[TX] 01 03 02 07 00 01 34 73 
[RX] (5 bytes) 01 83 02 C0 F1 
[MODBUS] Exception: 0x02 (Gecersiz adres)
0x0207,,,, EX_02
# --- ILERLEME: 520/8192 (%6) | 73s | OK:64 EX:456 TO:0 ---
[TX] 01 03 02 08 00 0A 45 B7 
[RX] (5 bytes) 01 83 02 C0 F1 
[MODBUS] Exception: 0x02 (Gecersiz adres)
[TX] 01 03 02 08 00 01 04 70 
[RX] (5 bytes) 01 83 02 C0 F1 
[MODBUS] Exception: 0x02 (Gecersiz adres)
0x0208,,,, EX_02
[TX] 01 03 02 09 00 01 55 B0 
[RX] (5 bytes) 01 83 02 C0 F1 
[MODBUS] Exception: 0x02 (Gecersiz adres)
0x0209,,,, EX_02
[TX] 01 03 02 0A 00 01 A5 B0 
[RX] (5 bytes) 01 83 02 C0 F1 
[MODBUS] Exception: 0x02 (Gecersiz adres)
0x020A,,,, EX_02
[TX] 01 03 02 0B 00 01 F4 70 
[RX] (5 bytes) 01 83 02 C0 F1 
[MODBUS] Exception: 0x02 (Gecersiz adres)
0x020B,,,, EX_02
[TX] 01 03 02 0C 00 01 45 B1 
[RX] (5 bytes) 01 83 02 C0 F1 
[MODBUS] Exception: 0x02 (Gecersiz adres)
0x020C,,,, EX_02
[TX] 01 03 02 0D 00 01 14 71 
[RX] (5 bytes) 01 83 02 C0 F1 
[MODBUS] Exception: 0x02 (Gecersiz adres)
0x020D,,,, EX_02
[TX] 01 03 02 0E 00 01 E4 71 
[RX] (5 bytes) 01 83 02 C0 F1 
[MODBUS] Exception: 0x02 (Gecersiz adres)
0x020E,,,, EX_02
[TX] 01 03 02 0F 00 01 B5 B1 
[RX] (5 bytes) 01 83 02 C0 F1 
[MODBUS] Exception: 0x02 (Gecersiz adres)
0x020F,,,, EX_02
[TX] 01 03 02 10 00 01 84 77 
[RX] (5 bytes) 01 83 02 C0 F1 
[MODBUS] Exception: 0x02 (Gecersiz adres)
0x0210,,,, EX_02
[TX] 01 03 02 11 00 01 D5 B7 
[RX] (5 bytes) 01 83 02 C0 F1 
[MODBUS] Exception: 0x02 (Gecersiz adres)
0x0211,,,, EX_02
[TX] 01 03 02 12 00 0A 64 70 
[RX] (5 bytes) 01 83 02 C0 F1 
[MODBUS] Exception: 0x02 (Gecersiz adres)
[TX] 01 03 02 12 00 01 25 B7 
[RX] (5 bytes) 01 83 02 C0 F1 
[MODBUS] Exception: 0x02 (Gecersiz adres)
0x0212,,,, EX_02
[TX] 01 03 02 13 00 01 74 77 
[RX] (5 bytes) 01 83 02 C0 F1 
[MODBUS] Exception: 0x02 (Gecersiz adres)
0x0213,,,, EX_02
[TX] 01 03 02 14 00 01 C5 B6 
[RX] (5 bytes) 01 83 02 C0 F1 
[MODBUS] Exception: 0x02 (Gecersiz adres)
0x0214,,,, EX_02
[TX] 01 03 02 15 00 01 94 76 
[RX] (5 bytes) 01 83 02 C0 F1 
[MODBUS] Exception: 0x02 (Gecersiz adres)
0x0215,,,, EX_02
[TX] 01 03 02 16 00 01 64 76 
[RX] (5 bytes) 01 83 02 C0 F1 
[MODBUS] Exception: 0x02 (Gecersiz adres)
0x0216,,,, EX_02
[TX] 01 03 02 17 00 01 35 B6 
[RX] (5 bytes) 01 83 02 C0 F1 
[MODBUS] Exception: 0x02 (Gecersiz adres)
0x0217,,,, EX_02
[TX] 01 03 02 18 00 01 05 B5 
[RX] (5 bytes) 01 83 02 C0 F1 
[MODBUS] Exception: 0x02 (Gecersiz adres)
0x0218,,,, EX_02
[TX] 01 03 02 19 00 01 54 75 
[RX] (5 bytes) 01 83 02 C0 F1 
[MODBUS] Exception: 0x02 (Gecersiz adres)
0x0219,,,, EX_02
[TX] 01 03 02 1A 00 01 A4 75 
[RX] (5 bytes) 01 83 02 C0 F1 
[MODBUS] Exception: 0x02 (Gecersiz adres)
0x021A,,,, EX_02
[TX] 01 03 02 1B 00 01 F5 B5 
[RX] (5 bytes) 01 83 02 C0 F1 
[MODBUS] Exception: 0x02 (Gecersiz adres)
0x021B,,,, EX_02
[TX] 01 03 02 1C 00 0A 05 B3 
[RX] (5 bytes) 01 83 02 C0 F1 
[MODBUS] Exception: 0x02 (Gecersiz adres)
[TX] 01 03 02 1C 00 01 44 74 
[RX] (5 bytes) 01 83 02 C0 F1 
[MODBUS] Exception: 0x02 (Gecersiz adres)
0x021C,,,, EX_02
[TX] 01 03 02 1D 00 01 15 B4 
[RX] (5 bytes) 01 83 02 C0 F1 
[MODBUS] Exception: 0x02 (Gecersiz adres)
0x021D,,,, EX_02
[TX] 01 03 02 1E 00 01 E5 B4 
[RX] (5 bytes) 01 83 02 C0 F1 
[MODBUS] Exception: 0x02 (Gecersiz adres)
0x021E,,,, EX_02
[TX] 01 03 02 1F 00 01 B4 74 
[RX] (5 bytes) 01 83 02 C0 F1 
[MODBUS] Exception: 0x02 (Gecersiz adres)
0x021F,,,, EX_02
[TX] 01 03 02 20 00 01 84 78 
[RX] (5 bytes) 01 83 02 C0 F1 
[MODBUS] Exception: 0x02 (Gecersiz adres)
0x0220,,,, EX_02
[TX] 01 03 02 21 00 01 D5 B8 
[RX] (5 bytes) 01 83 02 C0 F1 
[MODBUS] Exception: 0x02 (Gecersiz adres)
0x0221,,,, EX_02
[TX] 01 03 02 22 00 01 25 B8 
[RX] (5 bytes) 01 83 02 C0 F1 
[MODBUS] Exception: 0x02 (Gecersiz adres)
0x0222,,,, EX_02
[TX] 01 03 02 23 00 01 74 78 
[RX] (5 bytes) 01 83 02 C0 F1 
[MODBUS] Exception: 0x02 (Gecersiz adres)
0x0223,,,, EX_02
[TX] 01 03 02 24 00 01 C5 B9 
[RX] (5 bytes) 01 83 02 C0 F1 
[MODBUS] Exception: 0x02 (Gecersiz adres)
0x0224,,,, EX_02
[TX] 01 03 02 25 00 01 94 79 
[RX] (5 bytes) 01 83 02 C0 F1 
[MODBUS] Exception: 0x02 (Gecersiz adres)
0x0225,,,, EX_02
[TX] 01 03 02 26 00 0A 25 BE 
[RX] (5 bytes) 01 83 02 C0 F1 
[MODBUS] Exception: 0x02 (Gecersiz adres)
[TX] 01 03 02 26 00 01 64 79 
[RX] (5 bytes) 01 83 02 C0 F1 
[MODBUS] Exception: 0x02 (Gecersiz adres)
0x0226,,,, EX_02
[TX] 01 03 02 27 00 01 35 B9 
[RX] (5 bytes) 01 83 02 C0 F1 
[MODBUS] Exception: 0x02 (Gecersiz adres)
0x0227,,,, EX_02
[TX] 01 03 02 28 00 01 05 BA 
[RX] (5 bytes) 01 83 02 C0 F1 
[MODBUS] Exception: 0x02 (Gecersiz adres)
0x0228,,,, EX_02
[TX] 01 03 02 29 00 01 54 7A 
[RX] (5 bytes) 01 83 02 C0 F1 
[MODBUS] Exception: 0x02 (Gecersiz adres)
0x0229,,,, EX_02
[TX] 01 03 02 2A 00 01 A4 7A 
[RX] (5 bytes) 01 83 02 C0 F1 
[MODBUS] Exception: 0x02 (Gecersiz adres)
0x022A,,,, EX_02
[TX] 01 03 02 2B 00 01 F5 BA 
[RX] (5 bytes) 01 83 02 C0 F1 
[MODBUS] Exception: 0x02 (Gecersiz adres)
0x022B,,,, EX_02
[TX] 01 03 02 2C 00 01 44 7B 
[RX] (5 bytes) 01 83 02 C0 F1 
[MODBUS] Exception: 0x02 (Gecersiz adres)
0x022C,,,, EX_02
[TX] 01 03 02 2D 00 01 15 BB 
[RX] (5 bytes) 01 83 02 C0 F1 
[MODBUS] Exception: 0x02 (Gecersiz adres)
0x022D,,,, EX_02
[TX] 01 03 02 2E 00 01 E5 BB 
[RX] (5 bytes) 01 83 02 C0 F1 
[MODBUS] Exception: 0x02 (Gecersiz adres)
0x022E,,,, EX_02
[TX] 01 03 02 2F 00 01 B4 7B 
[RX] (5 bytes) 01 83 02 C0 F1 
[MODBUS] Exception: 0x02 (Gecersiz adres)
0x022F,,,, EX_02
[TX] 01 03 02 30 00 0A C4 7A 
[RX] (5 bytes) 01 83 02 C0 F1 
[MODBUS] Exception: 0x02 (Gecersiz adres)
[TX] 01 03 02 30 00 01 85 BD 
[RX] (5 bytes) 01 83 02 C0 F1 
[MODBUS] Exception: 0x02 (Gecersiz adres)
0x0230,,,, EX_02
[TX] 01 03 02 31 00 01 D4 7D 
[RX] (5 bytes) 01 83 02 C0 F1 
[MODBUS] Exception: 0x02 (Gecersiz adres)
0x0231,,,, EX_02
[TX] 01 03 02 32 00 01 24 7D 
[RX] (5 bytes) 01 83 02 C0 F1 
[MODBUS] Exception: 0x02 (Gecersiz adres)
0x0232,,,, EX_02
[TX] 01 03 02 33 00 01 75 BD 
[RX] (5 bytes) 01 83 02 C0 F1 
[MODBUS] Exception: 0x02 (Gecersiz adres)
0x0233,,,, EX_02
[TX] 01 03 02 34 00 01 C4 7C 
[RX] (5 bytes) 01 83 02 C0 F1 
[MODBUS] Exception: 0x02 (Gecersiz adres)
0x0234,,,, EX_02
[TX] 01 03 02 35 00 01 95 BC 
[RX] (5 bytes) 01 83 02 C0 F1 
[MODBUS] Exception: 0x02 (Gecersiz adres)
0x0235,,,, EX_02
[TX] 01 03 02 36 00 01 65 BC 
[RX] (5 bytes) 01 83 02 C0 F1 
[MODBUS] Exception: 0x02 (Gecersiz adres)
0x0236,,,, EX_02
[TX] 01 03 02 37 00 01 34 7C 
[RX] (5 bytes) 01 83 02 C0 F1 
[MODBUS] Exception: 0x02 (Gecersiz adres)
0x0237,,,, EX_02
[TX] 01 03 02 38 00 01 04 7F 
[RX] (5 bytes) 01 83 02 C0 F1 
[MODBUS] Exception: 0x02 (Gecersiz adres)
0x0238,,,, EX_02
[TX] 01 03 02 39 00 01 55 BF 
[RX] (5 bytes) 01 83 02 C0 F1 
[MODBUS] Exception: 0x02 (Gecersiz adres)
0x0239,,,, EX_02
[TX] 01 03 02 3A 00 0A E4 78 
[RX] (5 bytes) 01 83 02 C0 F1 
[MODBUS] Exception: 0x02 (Gecersiz adres)
[TX] 01 03 02 3A 00 01 A5 BF 
[RX] (5 bytes) 01 83 02 C0 F1 
[MODBUS] Exception: 0x02 (Gecersiz adres)
0x023A,,,, EX_02
[TX] 01 03 02 3B 00 01 F4 7F 
[RX] (5 bytes) 01 83 02 C0 F1 
[MODBUS] Exception: 0x02 (Gecersiz adres)
0x023B,,,, EX_02
[TX] 01 03 02 3C 00 01 45 BE 
[RX] (5 bytes) 01 83 02 C0 F1 
[MODBUS] Exception: 0x02 (Gecersiz adres)
0x023C,,,, EX_02
[TX] 01 03 02 3D 00 01 14 7E 
[RX] (5 bytes) 01 83 02 C0 F1 
[MODBUS] Exception: 0x02 (Gecersiz adres)
0x023D,,,, EX_02
[TX] 01 03 02 3E 00 01 E4 7E 
[RX] (5 bytes) 01 83 02 C0 F1 
[MODBUS] Exception: 0x02 (Gecersiz adres)
0x023E,,,, EX_02
[TX] 01 03 02 3F 00 01 B5 BE 
[RX] (5 bytes) 01 83 02 C0 F1 
[MODBUS] Exception: 0x02 (Gecersiz adres)
0x023F,,,, EX_02
[TX] 01 03 02 40 00 01 84 66 
[RX] (5 bytes) 01 83 02 C0 F1 
[MODBUS] Exception: 0x02 (Gecersiz adres)
0x0240,,,, EX_02
[TX] 01 03 02 41 00 01 D5 A6 
[RX] (5 bytes) 01 83 02 C0 F1 
[MODBUS] Exception: 0x02 (Gecersiz adres)
0x0241,,,, EX_02
[TX] 01 03 02 42 00 01 25 A6 
[RX] (5 bytes) 01 83 02 C0 F1 
[MODBUS] Exception: 0x02 (Gecersiz adres)
0x0242,,,, EX_02
[TX] 01 03 02 43 00 01 74 66 
[RX] (5 bytes) 01 83 02 C0 F1 
[MODBUS] Exception: 0x02 (Gecersiz adres)
0x0243,,,, EX_02
[TX] 01 03 02 44 00 0A 84 60 
[RX] (5 bytes) 01 83 02 C0 F1 
[MODBUS] Exception: 0x02 (Gecersiz adres)
[TX] 01 03 02 44 00 01 C5 A7 
[RX] (5 bytes) 01 83 02 C0 F1 
[MODBUS] Exception: 0x02 (Gecersiz adres)
0x0244,,,, EX_02
[TX] 01 03 02 45 00 01 94 67 
[RX] (5 bytes) 01 83 02 C0 F1 
[MODBUS] Exception: 0x02 (Gecersiz adres)
0x0245,,,, EX_02
[TX] 01 03 02 46 00 01 64 67 
[RX] (5 bytes) 01 83 02 C0 F1 
[MODBUS] Exception: 0x02 (Gecersiz adres)
0x0246,,,, EX_02
[TX] 01 03 02 47 00 01 35 A7 
[RX] (5 bytes) 01 83 02 C0 F1 
[MODBUS] Exception: 0x02 (Gecersiz adres)
0x0247,,,, EX_02
[TX] 01 03 02 48 00 01 05 A4 
[RX] (5 bytes) 01 83 02 C0 F1 
[MODBUS] Exception: 0x02 (Gecersiz adres)
0x0248,,,, EX_02
[TX] 01 03 02 49 00 01 54 64 
[RX] (5 bytes) 01 83 02 C0 F1 
[MODBUS] Exception: 0x02 (Gecersiz adres)
0x0249,,,, EX_02
[TX] 01 03 02 4A 00 01 A4 64 
[RX] (5 bytes) 01 83 02 C0 F1 
[MODBUS] Exception: 0x02 (Gecersiz adres)
0x024A,,,, EX_02
[TX] 01 03 02 4B 00 01 F5 A4 
[RX] (5 bytes) 01 83 02 C0 F1 
[MODBUS] Exception: 0x02 (Gecersiz adres)
0x024B,,,, EX_02
[TX] 01 03 02 4C 00 01 44 65 
[RX] (5 bytes) 01 83 02 C0 F1 
[MODBUS] Exception: 0x02 (Gecersiz adres)
0x024C,,,, EX_02
[TX] 01 03 02 4D 00 01 15 A5 
[RX] (5 bytes) 01 83 02 C0 F1 
[MODBUS] Exception: 0x02 (Gecersiz adres)
0x024D,,,, EX_02
[TX] 01 03 02 4E 00 0A A4 62 
[RX] (5 bytes) 01 83 02 C0 F1 
[MODBUS] Exception: 0x02 (Gecersiz adres)
[TX] 01 03 02 4E 00 01 E5 A5 
[RX] (5 bytes) 01 83 02 C0 F1 
[MODBUS] Exception: 0x02 (Gecersiz adres)
0x024E,,,, EX_02
[TX] 01 03 02 4F 00 01 B4 65 
[RX] (5 bytes) 01 83 02 C0 F1 
[MODBUS] Exception: 0x02 (Gecersiz adres)
0x024F,,,, EX_02
[TX] 01 03 02 50 00 01 85 A3 
[RX] (5 bytes) 01 83 02 C0 F1 
[MODBUS] Exception: 0x02 (Gecersiz adres)
0x0250,,,, EX_02
[TX] 01 03 02 51 00 01 D4 63 
[RX] (5 bytes) 01 83 02 C0 F1 
[MODBUS] Exception: 0x02 (Gecersiz adres)
0x0251,,,, EX_02
[TX] 01 03 02 52 00 01 24 63 
[RX] (5 bytes) 01 83 02 C0 F1 
[MODBUS] Exception: 0x02 (Gecersiz adres)
0x0252,,,, EX_02
[TX] 01 03 02 53 00 01 75 A3 
[RX] (5 bytes) 01 83 02 C0 F1 
[MODBUS] Exception: 0x02 (Gecersiz adres)
0x0253,,,, EX_02
[TX] 01 03 02 54 00 01 C4 62 
[RX] (5 bytes) 01 83 02 C0 F1 
[MODBUS] Exception: 0x02 (Gecersiz adres)
0x0254,,,, EX_02
[TX] 01 03 02 55 00 01 95 A2 
[RX] (5 bytes) 01 83 02 C0 F1 
[MODBUS] Exception: 0x02 (Gecersiz adres)
0x0255,,,, EX_02
[TX] 01 03 02 56 00 01 65 A2 
[RX] (5 bytes) 01 83 02 C0 F1 
[MODBUS] Exception: 0x02 (Gecersiz adres)
0x0256,,,, EX_02
[TX] 01 03 02 57 00 01 34 62 
[RX] (5 bytes) 01 83 02 C0 F1 
[MODBUS] Exception: 0x02 (Gecersiz adres)
0x0257,,,, EX_02
[TX] 01 03 02 58 00 0A 45 A6 
[RX] (5 bytes) 01 83 02 C0 F1 
[MODBUS] Exception: 0x02 (Gecersiz adres)
[TX] 01 03 02 58 00 01 04 61 
[RX] (5 bytes) 01 83 02 C0 F1 
[MODBUS] Exception: 0x02 (Gecersiz adres)
0x0258,,,, EX_02
[TX] 01 03 02 59 00 01 55 A1 
[RX] (5 bytes) 01 83 02 C0 F1 
[MODBUS] Exception: 0x02 (Gecersiz adres)
0x0259,,,, EX_02
[TX] 01 03 02 5A 00 01 A5 A1 
[RX] (5 bytes) 01 83 02 C0 F1 
[MODBUS] Exception: 0x02 (Gecersiz adres)
0x025A,,,, EX_02
[TX] 01 03 02 5B 00 01 F4 61 
[RX] (5 bytes) 01 83 02 C0 F1 
[MODBUS] Exception: 0x02 (Gecersiz adres)
0x025B,,,, EX_02
[TX] 01 03 02 5C 00 01 45 A0 
[RX] (5 bytes) 01 83 02 C0 F1 
[MODBUS] Exception: 0x02 (Gecersiz adres)
0x025C,,,, EX_02
[TX] 01 03 02 5D 00 01 14 60 
[RX] (5 bytes) 01 83 02 C0 F1 
[MODBUS] Exception: 0x02 (Gecersiz adres)
0x025D,,,, EX_02
[TX] 01 03 02 5E 00 01 E4 60 
[RX] (5 bytes) 01 83 02 C0 F1 
[MODBUS] Exception: 0x02 (Gecersiz adres)
0x025E,,,, EX_02
[TX] 01 03 02 5F 00 01 B5 A0 
[RX] (5 bytes) 01 83 02 C0 F1 
[MODBUS] Exception: 0x02 (Gecersiz adres)
0x025F,,,, EX_02
[TX] 01 03 02 60 00 01 85 AC 
[RX] (5 bytes) 01 83 02 C0 F1 
[MODBUS] Exception: 0x02 (Gecersiz adres)
0x0260,,,, EX_02
[TX] 01 03 02 61 00 01 D4 6C 
[RX] (5 bytes) 01 83 02 C0 F1 
[MODBUS] Exception: 0x02 (Gecersiz adres)
0x0261,,,, EX_02
[TX] 01 03 02 62 00 0A 65 AB 
[RX] (5 bytes) 01 83 02 C0 F1 
[MODBUS] Exception: 0x02 (Gecersiz adres)
[TX] 01 03 02 62 00 01 24 6C 
[RX] (5 bytes) 01 83 02 C0 F1 
[MODBUS] Exception: 0x02 (Gecersiz adres)
0x0262,,,, EX_02
[TX] 01 03 02 63 00 01 75 AC 
[RX] (5 bytes) 01 83 02 C0 F1 
[MODBUS] Exception: 0x02 (Gecersiz adres)
0x0263,,,, EX_02
[TX] 01 03 02 64 00 01 C4 6D 
[RX] (5 bytes) 01 83 02 C0 F1 
[MODBUS] Exception: 0x02 (Gecersiz adres)
0x0264,,,, EX_02
[TX] 01 03 02 65 00 01 95 AD 
[RX] (5 bytes) 01 83 02 C0 F1 
[MODBUS] Exception: 0x02 (Gecersiz adres)
0x0265,,,, EX_02
[TX] 01 03 02 66 00 01 65 AD 
[RX] (5 bytes) 01 83 02 C0 F1 
[MODBUS] Exception: 0x02 (Gecersiz adres)
0x0266,,,, EX_02
[TX] 01 03 02 67 00 01 34 6D 
[RX] (5 bytes) 01 83 02 C0 F1 
[MODBUS] Exception: 0x02 (Gecersiz adres)
0x0267,,,, EX_02
[TX] 01 03 02 68 00 01 04 6E 
[RX] (5 bytes) 01 83 02 C0 F1 
[MODBUS] Exception: 0x02 (Gecersiz adres)
0x0268,,,, EX_02
[TX] 01 03 02 69 00 01 55 AE 
[RX] (5 bytes) 01 83 02 C0 F1 
[MODBUS] Exception: 0x02 (Gecersiz adres)
0x0269,,,, EX_02
[TX] 01 03 02 6A 00 01 A5 AE 
[RX] (5 bytes) 01 83 02 C0 F1 
[MODBUS] Exception: 0x02 (Gecersiz adres)
0x026A,,,, EX_02
[TX] 01 03 02 6B 00 01 F4 6E 
[RX] (5 bytes) 01 83 02 C0 F1 
[MODBUS] Exception: 0x02 (Gecersiz adres)
0x026B,,,, EX_02
[TX] 01 03 02 6C 00 0A 04 68 
[RX] (5 bytes) 01 83 02 C0 F1 
[MODBUS] Exception: 0x02 (Gecersiz adres)
[TX] 01 03 02 6C 00 01 45 AF 
[RX] (5 bytes) 01 83 02 C0 F1 
[MODBUS] Exception: 0x02 (Gecersiz adres)
0x026C,,,, EX_02
[TX] 01 03 02 6D 00 01 14 6F 
[RX] (5 bytes) 01 83 02 C0 F1 
[MODBUS] Exception: 0x02 (Gecersiz adres)
0x026D,,,, EX_02
[TX] 01 03 02 6E 00 01 E4 6F 
[RX] (5 bytes) 01 83 02 C0 F1 
[MODBUS] Exception: 0x02 (Gecersiz adres)
0x026E,,,, EX_02
[TX] 01 03 02 6F 00 01 B5 AF 
[RX] (5 bytes) 01 83 02 C0 F1 
[MODBUS] Exception: 0x02 (Gecersiz adres)
0x026F,,,, EX_02
[TX] 01 03 02 70 00 01 84 69 
[RX] (5 bytes) 01 83 02 C0 F1 
[MODBUS] Exception: 0x02 (Gecersiz adres)
0x0270,,,, EX_02
[TX] 01 03 02 71 00 01 D5 A9 
[RX] (5 bytes) 01 83 02 C0 F1 
[MODBUS] Exception: 0x02 (Gecersiz adres)
0x0271,,,, EX_02
[TX] 01 03 02 72 00 01 25 A9 
[RX] (5 bytes) 01 83 02 C0 F1 
[MODBUS] Exception: 0x02 (Gecersiz adres)
0x0272,,,, EX_02
[TX] 01 03 02 73 00 01 74 69 
[RX] (5 bytes) 01 83 02 C0 F1 
[MODBUS] Exception: 0x02 (Gecersiz adres)
0x0273,,,, EX_02
[TX] 01 03 02 74 00 01 C5 A8 
[RX] (5 bytes) 01 83 02 C0 F1 
[MODBUS] Exception: 0x02 (Gecersiz adres)
0x0274,,,, EX_02
[TX] 01 03 02 75 00 01 94 68 
[RX] (5 bytes) 01 83 02 C0 F1 
[MODBUS] Exception: 0x02 (Gecersiz adres)
0x0275,,,, EX_02
[TX] 01 03 02 76 00 0A 25 AF 
[RX] (5 bytes) 01 83 02 C0 F1 
[MODBUS] Exception: 0x02 (Gecersiz adres)
[TX] 01 03 02 76 00 01 64 68 
[RX] (5 bytes) 01 83 02 C0 F1 
[MODBUS] Exception: 0x02 (Gecersiz adres)
0x0276,,,, EX_02
[TX] 01 03 02 77 00 01 35 A8 
[RX] (5 bytes) 01 83 02 C0 F1 
[MODBUS] Exception: 0x02 (Gecersiz adres)
0x0277,,,, EX_02
[TX] 01 03 02 78 00 01 05 AB 
[RX] (5 bytes) 01 83 02 C0 F1 
[MODBUS] Exception: 0x02 (Gecersiz adres)
0x0278,,,, EX_02
[TX] 01 03 02 79 00 01 54 6B 
[RX] (5 bytes) 01 83 02 C0 F1 
[MODBUS] Exception: 0x02 (Gecersiz adres)
0x0279,,,, EX_02
[TX] 01 03 02 7A 00 01 A4 6B 
[RX] (5 bytes) 01 83 02 C0 F1 
[MODBUS] Exception: 0x02 (Gecersiz adres)
0x027A,,,, EX_02
[TX] 01 03 02 7B 00 01 F5 AB 
[RX] (5 bytes) 01 83 02 C0 F1 
[MODBUS] Exception: 0x02 (Gecersiz adres)
0x027B,,,, EX_02
[TX] 01 03 02 7C 00 01 44 6A 
[RX] (5 bytes) 01 83 02 C0 F1 
[MODBUS] Exception: 0x02 (Gecersiz adres)
0x027C,,,, EX_02
[TX] 01 03 02 7D 00 01 15 AA 
[RX] (5 bytes) 01 83 02 C0 F1 
[MODBUS] Exception: 0x02 (Gecersiz adres)
0x027D,,,, EX_02
[TX] 01 03 02 7E 00 01 E5 AA 
[RX] (5 bytes) 01 83 02 C0 F1 
[MODBUS] Exception: 0x02 (Gecersiz adres)
0x027E,,,, EX_02
[TX] 01 03 02 7F 00 01 B4 6A 
[RX] (5 bytes) 01 83 02 C0 F1 
[MODBUS] Exception: 0x02 (Gecersiz adres)
0x027F,,,, EX_02
[TX] 01 03 02 80 00 0A C5 9D 
[RX] (5 bytes) 01 83 02 C0 F1 
[MODBUS] Exception: 0x02 (Gecersiz adres)
[TX] 01 03 02 80 00 01 84 5A 
[RX] (5 bytes) 01 83 02 C0 F1 
[MODBUS] Exception: 0x02 (Gecersiz adres)
0x0280,,,, EX_02
[TX] 01 03 02 81 00 01 D5 9A 
[RX] (5 bytes) 01 83 02 C0 F1 
[MODBUS] Exception: 0x02 (Gecersiz adres)
0x0281,,,, EX_02
[TX] 01 03 02 82 00 01 25 9A 
[RX] (5 bytes) 01 83 02 C0 F1 
[MODBUS] Exception: 0x02 (Gecersiz adres)
0x0282,,,, EX_02
[TX] 01 03 02 83 00 01 74 5A 
[RX] (5 bytes) 01 83 02 C0 F1 
[MODBUS] Exception: 0x02 (Gecersiz adres)
0x0283,,,, EX_02
[TX] 01 03 02 84 00 01 C5 9B 
[RX] (5 bytes) 01 83 02 C0 F1 
[MODBUS] Exception: 0x02 (Gecersiz adres)
0x0284,,,, EX_02
[TX] 01 03 02 85 00 01 94 5B 
[RX] (5 bytes) 01 83 02 C0 F1 
[MODBUS] Exception: 0x02 (Gecersiz adres)
0x0285,,,, EX_02
[TX] 01 03 02 86 00 01 64 5B 
[RX] (5 bytes) 01 83 02 C0 F1 
[MODBUS] Exception: 0x02 (Gecersiz adres)
0x0286,,,, EX_02
[TX] 01 03 02 87 00 01 35 9B 
[RX] (5 bytes) 01 83 02 C0 F1 
[MODBUS] Exception: 0x02 (Gecersiz adres)
0x0287,,,, EX_02
[TX] 01 03 02 88 00 01 05 98 
[RX] (5 bytes) 01 83 02 C0 F1 
[MODBUS] Exception: 0x02 (Gecersiz adres)
0x0288,,,, EX_02
[TX] 01 03 02 89 00 01 54 58 
[RX] (5 bytes) 01 83 02 C0 F1 
[MODBUS] Exception: 0x02 (Gecersiz adres)
0x0289,,,, EX_02
[TX] 01 03 02 8A 00 0A E5 9F 
[RX] (5 bytes) 01 83 02 C0 F1 
[MODBUS] Exception: 0x02 (Gecersiz adres)
[TX] 01 03 02 8A 00 01 A4 58 
[RX] (5 bytes) 01 83 02 C0 F1 
[MODBUS] Exception: 0x02 (Gecersiz adres)
0x028A,,,, EX_02
[TX] 01 03 02 8B 00 01 F5 98 
[RX] (5 bytes) 01 83 02 C0 F1 
[MODBUS] Exception: 0x02 (Gecersiz adres)
0x028B,,,, EX_02
[TX] 01 03 02 8C 00 01 44 59 
[RX] (5 bytes) 01 83 02 C0 F1 
[MODBUS] Exception: 0x02 (Gecersiz adres)
0x028C,,,, EX_02
[TX] 01 03 02 8D 00 01 15 99 
[RX] (5 bytes) 01 83 02 C0 F1 
[MODBUS] Exception: 0x02 (Gecersiz adres)
0x028D,,,, EX_02
[TX] 01 03 02 8E 00 01 E5 99 
[RX] (5 bytes) 01 83 02 C0 F1 
[MODBUS] Exception: 0x02 (Gecersiz adres)
0x028E,,,, EX_02
[TX] 01 03 02 8F 00 01 B4 59 
[RX] (5 bytes) 01 83 02 C0 F1 
[MODBUS] Exception: 0x02 (Gecersiz adres)
0x028F,,,, EX_02
[TX] 01 03 02 90 00 01 85 9F 
[RX] (5 bytes) 01 83 02 C0 F1 
[MODBUS] Exception: 0x02 (Gecersiz adres)
0x0290,,,, EX_02
[TX] 01 03 02 91 00 01 D4 5F 
[RX] (5 bytes) 01 83 02 C0 F1 
[MODBUS] Exception: 0x02 (Gecersiz adres)
0x0291,,,, EX_02
[TX] 01 03 02 92 00 01 24 5F 
[RX] (5 bytes) 01 83 02 C0 F1 
[MODBUS] Exception: 0x02 (Gecersiz adres)
0x0292,,,, EX_02
[TX] 01 03 02 93 00 01 75 9F 
[RX] (5 bytes) 01 83 02 C0 F1 
[MODBUS] Exception: 0x02 (Gecersiz adres)
0x0293,,,, EX_02
[TX] 01 03 02 94 00 0A 85 99 
[RX] (5 bytes) 01 83 02 C0 F1 
[MODBUS] Exception: 0x02 (Gecersiz adres)
[TX] 01 03 02 94 00 01 C4 5E 
[RX] (5 bytes) 01 83 02 C0 F1 
[MODBUS] Exception: 0x02 (Gecersiz adres)
0x0294,,,, EX_02
[TX] 01 03 02 95 00 01 95 9E 
[RX] (5 bytes) 01 83 02 C0 F1 
[MODBUS] Exception: 0x02 (Gecersiz adres)
0x0295,,,, EX_02
[TX] 01 03 02 96 00 01 65 9E 
[RX] (5 bytes) 01 83 02 C0 F1 
[MODBUS] Exception: 0x02 (Gecersiz adres)
0x0296,,,, EX_02
[TX] 01 03 02 97 00 01 34 5E 
[RX] (5 bytes) 01 83 02 C0 F1 
[MODBUS] Exception: 0x02 (Gecersiz adres)
0x0297,,,, EX_02
[TX] 01 03 02 98 00 01 04 5D 
[RX] (5 bytes) 01 83 02 C0 F1 
[MODBUS] Exception: 0x02 (Gecersiz adres)
0x0298,,,, EX_02
[TX] 01 03 02 99 00 01 55 9D 
[RX] (5 bytes) 01 83 02 C0 F1 
[MODBUS] Exception: 0x02 (Gecersiz adres)
0x0299,,,, EX_02
[TX] 01 03 02 9A 00 01 A5 9D 
[RX] (5 bytes) 01 83 02 C0 F1 
[MODBUS] Exception: 0x02 (Gecersiz adres)
0x029A,,,, EX_02
[TX] 01 03 02 9B 00 01 F4 5D 
[RX] (5 bytes) 01 83 02 C0 F1 
[MODBUS] Exception: 0x02 (Gecersiz adres)
0x029B,,,, EX_02
[TX] 01 03 02 9C 00 01 45 9C 
[RX] (5 bytes) 01 83 02 C0 F1 
[MODBUS] Exception: 0x02 (Gecersiz adres)
0x029C,,,, EX_02
[TX] 01 03 02 9D 00 01 14 5C 
[RX] (5 bytes) 01 83 02 C0 F1 
[MODBUS] Exception: 0x02 (Gecersiz adres)
0x029D,,,, EX_02
[TX] 01 03 02 9E 00 0A A5 9B 
[RX] (5 bytes) 01 83 02 C0 F1 
[MODBUS] Exception: 0x02 (Gecersiz adres)
[TX] 01 03 02 9E 00 01 E4 5C 
[RX] (5 bytes) 01 83 02 C0 F1 
[MODBUS] Exception: 0x02 (Gecersiz adres)
0x029E,,,, EX_02
[TX] 01 03 02 9F 00 01 B5 9C 
[RX] (5 bytes) 01 83 02 C0 F1 
[MODBUS] Exception: 0x02 (Gecersiz adres)
0x029F,,,, EX_02
[TX] 01 03 02 A0 00 01 85 90 
[RX] (5 bytes) 01 83 02 C0 F1 
[MODBUS] Exception: 0x02 (Gecersiz adres)
0x02A0,,,, EX_02
[TX] 01 03 02 A1 00 01 D4 50 
[RX] (5 bytes) 01 83 02 C0 F1 
[MODBUS] Exception: 0x02 (Gecersiz adres)
0x02A1,,,, EX_02
[TX] 01 03 02 A2 00 01 24 50 
[RX] (5 bytes) 01 83 02 C0 F1 
[MODBUS] Exception: 0x02 (Gecersiz adres)
0x02A2,,,, EX_02
[TX] 01 03 02 A3 00 01 75 90 
[RX] (5 bytes) 01 83 02 C0 F1 
[MODBUS] Exception: 0x02 (Gecersiz adres)
0x02A3,,,, EX_02
[TX] 01 03 02 A4 00 01 C4 51 
[RX] (5 bytes) 01 83 02 C0 F1 
[MODBUS] Exception: 0x02 (Gecersiz adres)
0x02A4,,,, EX_02
[TX] 01 03 02 A5 00 01 95 91 
[RX] (5 bytes) 01 83 02 C0 F1 
[MODBUS] Exception: 0x02 (Gecersiz adres)
0x02A5,,,, EX_02
[TX] 01 03 02 A6 00 01 65 91 
[RX] (5 bytes) 01 83 02 C0 F1 
[MODBUS] Exception: 0x02 (Gecersiz adres)
0x02A6,,,, EX_02
[TX] 01 03 02 A7 00 01 34 51 
[RX] (5 bytes) 01 83 02 C0 F1 
[MODBUS] Exception: 0x02 (Gecersiz adres)
0x02A7,,,, EX_02
[TX] 01 03 02 A8 00 0A 45 95 
[RX] (5 bytes) 01 83 02 C0 F1 
[MODBUS] Exception: 0x02 (Gecersiz adres)
[TX] 01 03 02 A8 00 01 04 52 
[RX] (5 bytes) 01 83 02 C0 F1 
[MODBUS] Exception: 0x02 (Gecersiz adres)
0x02A8,,,, EX_02
[TX] 01 03 02 A9 00 01 55 92 
[RX] (5 bytes) 01 83 02 C0 F1 
[MODBUS] Exception: 0x02 (Gecersiz adres)
0x02A9,,,, EX_02
[TX] 01 03 02 AA 00 01 A5 92 
[RX] (5 bytes) 01 83 02 C0 F1 
[MODBUS] Exception: 0x02 (Gecersiz adres)
0x02AA,,,, EX_02
[TX] 01 03 02 AB 00 01 F4 52 
[RX] (5 bytes) 01 83 02 C0 F1 
[MODBUS] Exception: 0x02 (Gecersiz adres)
0x02AB,,,, EX_02
[TX] 01 03 02 AC 00 01 45 93 
[RX] (5 bytes) 01 83 02 C0 F1 
[MODBUS] Exception: 0x02 (Gecersiz adres)
0x02AC,,,, EX_02
[TX] 01 03 02 AD 00 01 14 53 
[RX] (5 bytes) 01 83 02 C0 F1 
[MODBUS] Exception: 0x02 (Gecersiz adres)
0x02AD,,,, EX_02
[TX] 01 03 02 AE 00 01 E4 53 
[RX] (5 bytes) 01 83 02 C0 F1 
[MODBUS] Exception: 0x02 (Gecersiz adres)
0x02AE,,,, EX_02
[TX] 01 03 02 AF 00 01 B5 93 
[RX] (5 bytes) 01 83 02 C0 F1 
[MODBUS] Exception: 0x02 (Gecersiz adres)
0x02AF,,,, EX_02
[TX] 01 03 02 B0 00 01 84 55 
[RX] (5 bytes) 01 83 02 C0 F1 
[MODBUS] Exception: 0x02 (Gecersiz adres)
0x02B0,,,, EX_02
[TX] 01 03 02 B1 00 01 D5 95 
[RX] (5 bytes) 01 83 02 C0 F1 
[MODBUS] Exception: 0x02 (Gecersiz adres)
0x02B1,,,, EX_02
[TX] 01 03 02 B2 00 0A 64 52 
[RX] (5 bytes) 01 83 02 C0 F1 
[MODBUS] Exception: 0x02 (Gecersiz adres)
[TX] 01 03 02 B2 00 01 25 95 
[RX] (5 bytes) 01 83 02 C0 F1 
[MODBUS] Exception: 0x02 (Gecersiz adres)
0x02B2,,,, EX_02
[TX] 01 03 02 B3 00 01 74 55 
[RX] (5 bytes) 01 83 02 C0 F1 
[MODBUS] Exception: 0x02 (Gecersiz adres)
0x02B3,,,, EX_02
[TX] 01 03 02 B4 00 01 C5 94 
[RX] (5 bytes) 01 83 02 C0 F1 
[MODBUS] Exception: 0x02 (Gecersiz adres)
0x02B4,,,, EX_02
[TX] 01 03 02 B5 00 01 94 54 
[RX] (5 bytes) 01 83 02 C0 F1 
[MODBUS] Exception: 0x02 (Gecersiz adres)
0x02B5,,,, EX_02
[TX] 01 03 02 B6 00 01 64 54 
[RX] (5 bytes) 01 83 02 C0 F1 
[MODBUS] Exception: 0x02 (Gecersiz adres)
0x02B6,,,, EX_02
[TX] 01 03 02 B7 00 01 35 94 
[RX] (5 bytes) 01 83 02 C0 F1 
[MODBUS] Exception: 0x02 (Gecersiz adres)
0x02B7,,,, EX_02
[TX] 01 03 02 B8 00 01 05 97 
[RX] (5 bytes) 01 83 02 C0 F1 
[MODBUS] Exception: 0x02 (Gecersiz adres)
0x02B8,,,, EX_02
[TX] 01 03 02 B9 00 01 54 57 
[RX] (5 bytes) 01 83 02 C0 F1 
[MODBUS] Exception: 0x02 (Gecersiz adres)
0x02B9,,,, EX_02
[TX] 01 03 02 BA 00 01 A4 57 
[RX] (5 bytes) 01 83 02 C0 F1 
[MODBUS] Exception: 0x02 (Gecersiz adres)
0x02BA,,,, EX_02
[TX] 01 03 02 BB 00 01 F5 97 
[RX] (5 bytes) 01 83 02 C0 F1 
[MODBUS] Exception: 0x02 (Gecersiz adres)
0x02BB,,,, EX_02
[TX] 01 03 02 BC 00 0A 05 91 
[RX] (5 bytes) 01 83 02 C0 F1 
[MODBUS] Exception: 0x02 (Gecersiz adres)
[TX] 01 03 02 BC 00 01 44 56 
[RX] (5 bytes) 01 83 02 C0 F1 
[MODBUS] Exception: 0x02 (Gecersiz adres)
0x02BC,,,, EX_02
[TX] 01 03 02 BD 00 01 15 96 
[RX] (5 bytes) 01 83 02 C0 F1 
[MODBUS] Exception: 0x02 (Gecersiz adres)
0x02BD,,,, EX_02
[TX] 01 03 02 BE 00 01 E5 96 
[RX] (5 bytes) 01 83 02 C0 F1 
[MODBUS] Exception: 0x02 (Gecersiz adres)
0x02BE,,,, EX_02
[TX] 01 03 02 BF 00 01 B4 56 
[RX] (5 bytes) 01 83 02 C0 F1 
[MODBUS] Exception: 0x02 (Gecersiz adres)
0x02BF,,,, EX_02
[TX] 01 03 02 C0 00 01 85 8E 
[RX] (5 bytes) 01 83 02 C0 F1 
[MODBUS] Exception: 0x02 (Gecersiz adres)
0x02C0,,,, EX_02
[TX] 01 03 02 C1 00 01 D4 4E 
[RX] (5 bytes) 01 83 02 C0 F1 
[MODBUS] Exception: 0x02 (Gecersiz adres)
0x02C1,,,, EX_02
[TX] 01 03 02 C2 00 01 24 4E 
[RX] (5 bytes) 01 83 02 C0 F1 
[MODBUS] Exception: 0x02 (Gecersiz adres)
0x02C2,,,, EX_02
[TX] 01 03 02 C3 00 01 75 8E 
[RX] (5 bytes) 01 83 02 C0 F1 
[MODBUS] Exception: 0x02 (Gecersiz adres)
0x02C3,,,, EX_02
[TX] 01 03 02 C4 00 01 C4 4F 
[RX] (5 bytes) 01 83 02 C0 F1 
[MODBUS] Exception: 0x02 (Gecersiz adres)
0x02C4,,,, EX_02
[TX] 01 03 02 C5 00 01 95 8F 
[RX] (5 bytes) 01 83 02 C0 F1 
[MODBUS] Exception: 0x02 (Gecersiz adres)
0x02C5,,,, EX_02
[TX] 01 03 02 C6 00 0A 24 48 
[RX] (5 bytes) 01 83 02 C0 F1 
[MODBUS] Exception: 0x02 (Gecersiz adres)
[TX] 01 03 02 C6 00 01 65 8F 
[RX] (5 bytes) 01 83 02 C0 F1 
[MODBUS] Exception: 0x02 (Gecersiz adres)
0x02C6,,,, EX_02
[TX] 01 03 02 C7 00 01 34 4F 
[RX] (5 bytes) 01 83 02 C0 F1 
[MODBUS] Exception: 0x02 (Gecersiz adres)
0x02C7,,,, EX_02
[TX] 01 03 02 C8 00 01 04 4C 
[RX] (5 bytes) 01 83 02 C0 F1 
[MODBUS] Exception: 0x02 (Gecersiz adres)
0x02C8,,,, EX_02
[TX] 01 03 02 C9 00 01 55 8C 
[RX] (5 bytes) 01 83 02 C0 F1 
[MODBUS] Exception: 0x02 (Gecersiz adres)
0x02C9,,,, EX_02
[TX] 01 03 02 CA 00 01 A5 8C 
[RX] (5 bytes) 01 83 02 C0 F1 
[MODBUS] Exception: 0x02 (Gecersiz adres)
0x02CA,,,, EX_02
[TX] 01 03 02 CB 00 01 F4 4C 
[RX] (5 bytes) 01 83 02 C0 F1 
[MODBUS] Exception: 0x02 (Gecersiz adres)
0x02CB,,,, EX_02
[TX] 01 03 02 CC 00 01 45 8D 
[RX] (5 bytes) 01 83 02 C0 F1 
[MODBUS] Exception: 0x02 (Gecersiz adres)
0x02CC,,,, EX_02
[TX] 01 03 02 CD 00 01 14 4D 
[RX] (5 bytes) 01 83 02 C0 F1 
[MODBUS] Exception: 0x02 (Gecersiz adres)
0x02CD,,,, EX_02
[TX] 01 03 02 CE 00 01 E4 4D 
[RX] (5 bytes) 01 83 02 C0 F1 
[MODBUS] Exception: 0x02 (Gecersiz adres)
0x02CE,,,, EX_02
[TX] 01 03 02 CF 00 01 B5 8D 
[RX] (5 bytes) 01 83 02 C0 F1 
[MODBUS] Exception: 0x02 (Gecersiz adres)
0x02CF,,,, EX_02
[TX] 01 03 02 D0 00 0A C5 8C 
[RX] (5 bytes) 01 83 02 C0 F1 
[MODBUS] Exception: 0x02 (Gecersiz adres)
[TX] 01 03 02 D0 00 01 84 4B 
[RX] (5 bytes) 01 83 02 C0 F1 
[MODBUS] Exception: 0x02 (Gecersiz adres)
0x02D0,,,, EX_02
[TX] 01 03 02 D1 00 01 D5 8B 
[RX] (5 bytes) 01 83 02 C0 F1 
[MODBUS] Exception: 0x02 (Gecersiz adres)
0x02D1,,,, EX_02
[TX] 01 03 02 D2 00 01 25 8B 
[RX] (5 bytes) 01 83 02 C0 F1 
[MODBUS] Exception: 0x02 (Gecersiz adres)
0x02D2,,,, EX_02
[TX] 01 03 02 D3 00 01 74 4B 
[RX] (5 bytes) 01 83 02 C0 F1 
[MODBUS] Exception: 0x02 (Gecersiz adres)
0x02D3,,,, EX_02
[TX] 01 03 02 D4 00 01 C5 8A 
[RX] (5 bytes) 01 83 02 C0 F1 
[MODBUS] Exception: 0x02 (Gecersiz adres)
0x02D4,,,, EX_02
[TX] 01 03 02 D5 00 01 94 4A 
[RX] (5 bytes) 01 83 02 C0 F1 
[MODBUS] Exception: 0x02 (Gecersiz adres)
0x02D5,,,, EX_02
[TX] 01 03 02 D6 00 01 64 4A 
[RX] (5 bytes) 01 83 02 C0 F1 
[MODBUS] Exception: 0x02 (Gecersiz adres)
0x02D6,,,, EX_02
[TX] 01 03 02 D7 00 01 35 8A 
[RX] (5 bytes) 01 83 02 C0 F1 
[MODBUS] Exception: 0x02 (Gecersiz adres)
0x02D7,,,, EX_02
[TX] 01 03 02 D8 00 01 05 89 
[RX] (5 bytes) 01 83 02 C0 F1 
[MODBUS] Exception: 0x02 (Gecersiz adres)
0x02D8,,,, EX_02
[TX] 01 03 02 D9 00 01 54 49 
[RX] (5 bytes) 01 83 02 C0 F1 
[MODBUS] Exception: 0x02 (Gecersiz adres)
0x02D9,,,, EX_02
[TX] 01 03 02 DA 00 0A E5 8E 
[RX] (5 bytes) 01 83 02 C0 F1 
[MODBUS] Exception: 0x02 (Gecersiz adres)
[TX] 01 03 02 DA 00 01 A4 49 
[RX] (5 bytes) 01 83 02 C0 F1 
[MODBUS] Exception: 0x02 (Gecersiz adres)
0x02DA,,,, EX_02
[TX] 01 03 02 DB 00 01 F5 89 
[RX] (5 bytes) 01 83 02 C0 F1 
[MODBUS] Exception: 0x02 (Gecersiz adres)
0x02DB,,,, EX_02
[TX] 01 03 02 DC 00 01 44 48 
[RX] (5 bytes) 01 83 02 C0 F1 
[MODBUS] Exception: 0x02 (Gecersiz adres)
0x02DC,,,, EX_02
[TX] 01 03 02 DD 00 01 15 88 
[RX] (5 bytes) 01 83 02 C0 F1 
[MODBUS] Exception: 0x02 (Gecersiz adres)
0x02DD,,,, EX_02
[TX] 01 03 02 DE 00 01 E5 88 
[RX] (5 bytes) 01 83 02 C0 F1 
[MODBUS] Exception: 0x02 (Gecersiz adres)
0x02DE,,,, EX_02
[TX] 01 03 02 DF 00 01 B4 48 
[RX] (5 bytes) 01 83 02 C0 F1 
[MODBUS] Exception: 0x02 (Gecersiz adres)
0x02DF,,,, EX_02
[TX] 01 03 02 E0 00 01 84 44 
[RX] (5 bytes) 01 83 02 C0 F1 
[MODBUS] Exception: 0x02 (Gecersiz adres)
0x02E0,,,, EX_02
[TX] 01 03 02 E1 00 01 D5 84 
[RX] (5 bytes) 01 83 02 C0 F1 
[MODBUS] Exception: 0x02 (Gecersiz adres)
0x02E1,,,, EX_02
[TX] 01 03 02 E2 00 01 25 84 
[RX] (5 bytes) 01 83 02 C0 F1 
[MODBUS] Exception: 0x02 (Gecersiz adres)
0x02E2,,,, EX_02
[TX] 01 03 02 E3 00 01 74 44 
[RX] (5 bytes) 01 83 02 C0 F1 
[MODBUS] Exception: 0x02 (Gecersiz adres)
0x02E3,,,, EX_02
[TX] 01 03 02 E4 00 0A 84 42 
[RX] (5 bytes) 01 83 02 C0 F1 
[MODBUS] Exception: 0x02 (Gecersiz adres)
[TX] 01 03 02 E4 00 01 C5 85 
[RX] (5 bytes) 01 83 02 C0 F1 
[MODBUS] Exception: 0x02 (Gecersiz adres)
0x02E4,,,, EX_02
[TX] 01 03 02 E5 00 01 94 45 
[RX] (5 bytes) 01 83 02 C0 F1 
[MODBUS] Exception: 0x02 (Gecersiz adres)
0x02E5,,,, EX_02
[TX] 01 03 02 E6 00 01 64 45 
[RX] (5 bytes) 01 83 02 C0 F1 
[MODBUS] Exception: 0x02 (Gecersiz adres)
0x02E6,,,, EX_02
[TX] 01 03 02 E7 00 01 35 85 
[RX] (5 bytes) 01 83 02 C0 F1 
[MODBUS] Exception: 0x02 (Gecersiz adres)
0x02E7,,,, EX_02
[TX] 01 03 02 E8 00 01 05 86 
[RX] (5 bytes) 01 83 02 C0 F1 
[MODBUS] Exception: 0x02 (Gecersiz adres)
0x02E8,,,, EX_02
[TX] 01 03 02 E9 00 01 54 46 
[RX] (5 bytes) 01 83 02 C0 F1 
[MODBUS] Exception: 0x02 (Gecersiz adres)
0x02E9,,,, EX_02
[TX] 01 03 02 EA 00 01 A4 46 
[RX] (5 bytes) 01 83 02 C0 F1 
[MODBUS] Exception: 0x02 (Gecersiz adres)
0x02EA,,,, EX_02
[TX] 01 03 02 EB 00 01 F5 86 
[RX] (5 bytes) 01 83 02 C0 F1 
[MODBUS] Exception: 0x02 (Gecersiz adres)
0x02EB,,,, EX_02
[TX] 01 03 02 EC 00 01 44 47 
[RX] (5 bytes) 01 83 02 C0 F1 
[MODBUS] Exception: 0x02 (Gecersiz adres)
0x02EC,,,, EX_02
[TX] 01 03 02 ED 00 01 15 87 
[RX] (5 bytes) 01 83 02 C0 F1 
[MODBUS] Exception: 0x02 (Gecersiz adres)
0x02ED,,,, EX_02
[TX] 01 03 02 EE 00 0A A4 40 
[RX] (5 bytes) 01 83 02 C0 F1 
[MODBUS] Exception: 0x02 (Gecersiz adres)
[TX] 01 03 02 EE 00 01 E5 87 
[RX] (5 bytes) 01 83 02 C0 F1 
[MODBUS] Exception: 0x02 (Gecersiz adres)
0x02EE,,,, EX_02
[TX] 01 03 02 EF 00 01 B4 47 
[RX] (5 bytes) 01 83 02 C0 F1 
[MODBUS] Exception: 0x02 (Gecersiz adres)
0x02EF,,,, EX_02
[TX] 01 03 02 F0 00 01 85 81 
[RX] (5 bytes) 01 83 02 C0 F1 
[MODBUS] Exception: 0x02 (Gecersiz adres)
0x02F0,,,, EX_02
[TX] 01 03 02 F1 00 01 D4 41 
[RX] (5 bytes) 01 83 02 C0 F1 
[MODBUS] Exception: 0x02 (Gecersiz adres)
0x02F1,,,, EX_02
[TX] 01 03 02 F2 00 01 24 41 
[RX] (5 bytes) 01 83 02 C0 F1 
[MODBUS] Exception: 0x02 (Gecersiz adres)
0x02F2,,,, EX_02
[TX] 01 03 02 F3 00 01 75 81 
[RX] (5 bytes) 01 83 02 C0 F1 
[MODBUS] Exception: 0x02 (Gecersiz adres)
0x02F3,,,, EX_02
[TX] 01 03 02 F4 00 01 C4 40 
[RX] (5 bytes) 01 83 02 C0 F1 
[MODBUS] Exception: 0x02 (Gecersiz adres)
0x02F4,,,, EX_02
[TX] 01 03 02 F5 00 01 95 80 
[RX] (5 bytes) 01 83 02 C0 F1 
[MODBUS] Exception: 0x02 (Gecersiz adres)
0x02F5,,,, EX_02
[TX] 01 03 02 F6 00 01 65 80 
[RX] (5 bytes) 01 83 02 C0 F1 
[MODBUS] Exception: 0x02 (Gecersiz adres)
0x02F6,,,, EX_02
[TX] 01 03 02 F7 00 01 34 40 
[RX] (5 bytes) 01 83 02 C0 F1 
[MODBUS] Exception: 0x02 (Gecersiz adres)
0x02F7,,,, EX_02
[TX] 01 03 02 F8 00 0A 45 84 
[RX] (5 bytes) 01 83 02 C0 F1 
[MODBUS] Exception: 0x02 (Gecersiz adres)
[TX] 01 03 02 F8 00 01 04 43 
[RX] (5 bytes) 01 83 02 C0 F1 
[MODBUS] Exception: 0x02 (Gecersiz adres)
0x02F8,,,, EX_02
[TX] 01 03 02 F9 00 01 55 83 
[RX] (5 bytes) 01 83 02 C0 F1 
[MODBUS] Exception: 0x02 (Gecersiz adres)
0x02F9,,,, EX_02
[TX] 01 03 02 FA 00 01 A5 83 
[RX] (5 bytes) 01 83 02 C0 F1 
[MODBUS] Exception: 0x02 (Gecersiz adres)
0x02FA,,,, EX_02
[TX] 01 03 02 FB 00 01 F4 43 
[RX] (5 bytes) 01 83 02 C0 F1 
[MODBUS] Exception: 0x02 (Gecersiz adres)
0x02FB,,,, EX_02
[TX] 01 03 02 FC 00 01 45 82 
[RX] (5 bytes) 01 83 02 C0 F1 
[MODBUS] Exception: 0x02 (Gecersiz adres)
0x02FC,,,, EX_02
[TX] 01 03 02 FD 00 01 14 42 
[RX] (5 bytes) 01 83 02 C0 F1 
[MODBUS] Exception: 0x02 (Gecersiz adres)
0x02FD,,,, EX_02
[TX] 01 03 02 FE 00 01 E4 42 
[RX] (5 bytes) 01 83 02 C0 F1 
[MODBUS] Exception: 0x02 (Gecersiz adres)
0x02FE,,,, EX_02
[TX] 01 03 02 FF 00 01 B5 82 
[RX] (5 bytes) 01 83 02 C0 F1 
[MODBUS] Exception: 0x02 (Gecersiz adres)
0x02FF,,,, EX_02
[TX] 01 03 03 00 00 01 84 4E 
[RX] (5 bytes) 01 83 02 C0 F1 
[MODBUS] Exception: 0x02 (Gecersiz adres)
0x0300,,,, EX_02
[TX] 01 03 03 01 00 01 D5 8E 
[RX] (5 bytes) 01 83 02 C0 F1 
[MODBUS] Exception: 0x02 (Gecersiz adres)
0x0301,,,, EX_02
# --- ILERLEME: 770/8192 (%9) | 111s | OK:64 EX:706 TO:0 ---
[TX] 01 03 03 02 00 0A 64 49 
[RX] (5 bytes) 01 83 02 C0 F1 
[MODBUS] Exception: 0x02 (Gecersiz adres)
[TX] 01 03 03 02 00 01 25 8E 
[RX] (5 bytes) 01 83 02 C0 F1 
[MODBUS] Exception: 0x02 (Gecersiz adres)
0x0302,,,, EX_02
[TX] 01 03 03 03 00 01 74 4E 
[RX] (5 bytes) 01 83 02 C0 F1 
[MODBUS] Exception: 0x02 (Gecersiz adres)
0x0303,,,, EX_02
[TX] 01 03 03 04 00 01 C5 8F 
[RX] (5 bytes) 01 83 02 C0 F1 
[MODBUS] Exception: 0x02 (Gecersiz adres)
0x0304,,,, EX_02
[TX] 01 03 03 05 00 01 94 4F 
[RX] (5 bytes) 01 83 02 C0 F1 
[MODBUS] Exception: 0x02 (Gecersiz adres)
0x0305,,,, EX_02
[TX] 01 03 03 06 00 01 64 4F 
[RX] (5 bytes) 01 83 02 C0 F1 
[MODBUS] Exception: 0x02 (Gecersiz adres)
0x0306,,,, EX_02
[TX] 01 03 03 07 00 01 35 8F 
[RX] (5 bytes) 01 83 02 C0 F1 
[MODBUS] Exception: 0x02 (Gecersiz adres)
0x0307,,,, EX_02
[TX] 01 03 03 08 00 01 05 8C 
[RX] (5 bytes) 01 83 02 C0 F1 
[MODBUS] Exception: 0x02 (Gecersiz adres)
0x0308,,,, EX_02
[TX] 01 03 03 09 00 01 54 4C 
[RX] (5 bytes) 01 83 02 C0 F1 
[MODBUS] Exception: 0x02 (Gecersiz adres)
0x0309,,,, EX_02
[TX] 01 03 03 0A 00 01 A4 4C 
[RX] (5 bytes) 01 83 02 C0 F1 
[MODBUS] Exception: 0x02 (Gecersiz adres)
0x030A,,,, EX_02
[TX] 01 03 03 0B 00 01 F5 8C 
[RX] (5 bytes) 01 83 02 C0 F1 
[MODBUS] Exception: 0x02 (Gecersiz adres)
0x030B,,,, EX_02
[TX] 01 03 03 0C 00 0A 05 8A 
[RX] (5 bytes) 01 83 02 C0 F1 
[MODBUS] Exception: 0x02 (Gecersiz adres)
[TX] 01 03 03 0C 00 01 44 4D 
[RX] (5 bytes) 01 83 02 C0 F1 
[MODBUS] Exception: 0x02 (Gecersiz adres)
0x030C,,,, EX_02
[TX] 01 03 03 0D 00 01 15 8D 
[RX] (5 bytes) 01 83 02 C0 F1 
[MODBUS] Exception: 0x02 (Gecersiz adres)
0x030D,,,, EX_02
[TX] 01 03 03 0E 00 01 E5 8D 
[RX] (5 bytes) 01 83 02 C0 F1 
[MODBUS] Exception: 0x02 (Gecersiz adres)
0x030E,,,, EX_02
[TX] 01 03 03 0F 00 01 B4 4D 
[RX] (5 bytes) 01 83 02 C0 F1 
[MODBUS] Exception: 0x02 (Gecersiz adres)
0x030F,,,, EX_02
[TX] 01 03 03 10 00 01 85 8B 
[RX] (5 bytes) 01 83 02 C0 F1 
[MODBUS] Exception: 0x02 (Gecersiz adres)
0x0310,,,, EX_02
[TX] 01 03 03 11 00 01 D4 4B 
[RX] (5 bytes) 01 83 02 C0 F1 
[MODBUS] Exception: 0x02 (Gecersiz adres)
0x0311,,,, EX_02
[TX] 01 03 03 12 00 01 24 4B 
[RX] (5 bytes) 01 83 02 C0 F1 
[MODBUS] Exception: 0x02 (Gecersiz adres)
0x0312,,,, EX_02
[TX] 01 03 03 13 00 01 75 8B 
[RX] (5 bytes) 01 83 02 C0 F1 
[MODBUS] Exception: 0x02 (Gecersiz adres)
0x0313,,,, EX_02
[TX] 01 03 03 14 00 01 C4 4A 
[RX] (5 bytes) 01 83 02 C0 F1 
[MODBUS] Exception: 0x02 (Gecersiz adres)
0x0314,,,, EX_02
[TX] 01 03 03 15 00 01 95 8A 
[RX] (5 bytes) 01 83 02 C0 F1 
[MODBUS] Exception: 0x02 (Gecersiz adres)
0x0315,,,, EX_02
[TX] 01 03 03 16 00 0A 24 4D 
[RX] (5 bytes) 01 83 02 C0 F1 
[MODBUS] Exception: 0x02 (Gecersiz adres)
