> scanwrite 0040 0A3F

##############################################
#    YAZILABILIRLIK TESTI BASLIYOR           #
##############################################
Aralik : 0x0040 - 0x0A3F
Yontem : Mevcut degeri oku, ayni degeri geri yaz (GUVENLI)
Durdurmak icin 'q' basin.
----------------------------------------------
CSV: addr_hex,value_hex,write_result
----------------------------------------------
[TX] 01 03 00 40 00 01 85 DE 
[RX] (7 bytes) 01 03 02 00 00 B8 44 
[TX] 01 10 00 40 00 01 02 00 00 A8 90 
[RX] (5 bytes) 01 90 02 CD C1 
0x0040,0x0000,RO_EX02
[TX] 01 03 00 41 00 01 D4 1E 
[RX] (7 bytes) 01 03 02 00 00 B8 44 
[TX] 01 10 00 41 00 01 02 00 00 A9 41 
[RX] (5 bytes) 01 90 02 CD C1 
0x0041,0x0000,RO_EX02
[TX] 01 03 00 42 00 01 24 1E 
[RX] (7 bytes) 01 03 02 00 00 B8 44 
[TX] 01 10 00 42 00 01 02 00 00 A9 72 
[RX] (5 bytes) 01 90 02 CD C1 
0x0042,0x0000,RO_EX02
[TX] 01 03 00 43 00 01 75 DE 
[RX] (7 bytes) 01 03 02 00 1F F9 8C 
[TX] 01 10 00 43 00 01 02 00 1F E9 6B 
[RX] (5 bytes) 01 90 02 CD C1 
0x0043,0x001F,RO_EX02
[TX] 01 03 00 44 00 01 C4 1F 
[RX] (7 bytes) 01 03 02 01 36 39 C2 
[TX] 01 10 00 44 00 01 02 01 36 28 92 
[RX] (5 bytes) 01 90 02 CD C1 
0x0044,0x0136,RO_EX02
[TX] 01 03 00 45 00 01 95 DF 
[RX] (7 bytes) 01 03 02 00 00 B8 44 
[TX] 01 10 00 45 00 01 02 00 00 A8 C5 
[RX] (5 bytes) 01 90 02 CD C1 
0x0045,0x0000,RO_EX02
[TX] 01 03 00 46 00 01 65 DF 
[RX] (7 bytes) 01 03 02 00 00 B8 44 
[TX] 01 10 00 46 00 01 02 00 00 A8 F6 
[RX] (5 bytes) 01 90 02 CD C1 
0x0046,0x0000,RO_EX02
[TX] 01 03 00 47 00 01 34 1F 
[RX] (7 bytes) 01 03 02 00 00 B8 44 
[TX] 01 10 00 47 00 01 02 00 00 A9 27 
[RX] (5 bytes) 01 90 02 CD C1 
0x0047,0x0000,RO_EX02
[TX] 01 03 00 48 00 01 04 1C 
[RX] (7 bytes) 01 03 02 00 00 B8 44 
[TX] 01 10 00 48 00 01 02 00 00 A9 D8 
[RX] (5 bytes) 01 90 02 CD C1 
0x0048,0x0000,RO_EX02
[TX] 01 03 00 49 00 01 55 DC 
[RX] (7 bytes) 01 03 02 00 00 B8 44 
[TX] 01 10 00 49 00 01 02 00 00 A8 09 
[RX] (5 bytes) 01 90 02 CD C1 
0x0049,0x0000,RO_EX02
[TX] 01 03 00 4A 00 01 A5 DC 
[RX] (7 bytes) 01 03 02 00 00 B8 44 
[TX] 01 10 00 4A 00 01 02 00 00 A8 3A 
[RX] (5 bytes) 01 90 02 CD C1 
0x004A,0x0000,RO_EX02
[TX] 01 03 00 4B 00 01 F4 1C 
[RX] (7 bytes) 01 03 02 00 00 B8 44 
[TX] 01 10 00 4B 00 01 02 00 00 A9 EB 
[RX] (5 bytes) 01 90 02 CD C1 
0x004B,0x0000,RO_EX02
[TX] 01 03 00 4C 00 01 45 DD 
[RX] (7 bytes) 01 03 02 00 00 B8 44 
[TX] 01 10 00 4C 00 01 02 00 00 A8 5C 
[RX] (5 bytes) 01 90 02 CD C1 
0x004C,0x0000,RO_EX02
[TX] 01 03 00 4D 00 01 14 1D 
[RX] (7 bytes) 01 03 02 00 00 B8 44 
[TX] 01 10 00 4D 00 01 02 00 00 A9 8D 
[RX] (5 bytes) 01 90 02 CD C1 
0x004D,0x0000,RO_EX02
[TX] 01 03 00 4E 00 01 E4 1D 
[RX] (7 bytes) 01 03 02 00 00 B8 44 
[TX] 01 10 00 4E 00 01 02 00 00 A9 BE 
[RX] (5 bytes) 01 90 02 CD C1 
0x004E,0x0000,RO_EX02
[TX] 01 03 00 4F 00 01 B5 DD 
[RX] (7 bytes) 01 03 02 00 00 B8 44 
[TX] 01 10 00 4F 00 01 02 00 00 A8 6F 
[RX] (5 bytes) 01 90 02 CD C1 
0x004F,0x0000,RO_EX02
[TX] 01 03 00 50 00 01 84 1B 
[RX] (7 bytes) 01 03 02 00 00 B8 44 
[TX] 01 10 00 50 00 01 02 00 00 AA 00 
[RX] (5 bytes) 01 90 02 CD C1 
0x0050,0x0000,RO_EX02
[TX] 01 03 00 51 00 01 D5 DB 
[RX] (7 bytes) 01 03 02 00 00 B8 44 
[TX] 01 10 00 51 00 01 02 00 00 AB D1 
[RX] (5 bytes) 01 90 02 CD C1 
0x0051,0x0000,RO_EX02
[TX] 01 03 00 52 00 01 25 DB 
[RX] (7 bytes) 01 03 02 04 04 BB 47 
[TX] 01 10 00 52 00 01 02 04 04 A8 E1 
[RX] (5 bytes) 01 90 02 CD C1 
0x0052,0x0404,RO_EX02
[TX] 01 03 00 53 00 01 74 1B 
[RX] (7 bytes) 01 03 02 04 04 BB 47 
[TX] 01 10 00 53 00 01 02 04 04 A9 30 
[RX] (5 bytes) 01 90 02 CD C1 
0x0053,0x0404,RO_EX02
[TX] 01 03 00 54 00 01 C5 DA 
[RX] (7 bytes) 01 03 02 03 03 F8 B5 
[TX] 01 10 00 54 00 01 02 03 03 EB 75 
[RX] (5 bytes) 01 90 02 CD C1 
0x0054,0x0303,RO_EX02
[TX] 01 03 00 55 00 01 94 1A 
[RX] (7 bytes) 01 03 02 00 00 B8 44 
[TX] 01 10 00 55 00 01 02 00 00 AA 55 
[RX] (5 bytes) 01 90 02 CD C1 
0x0055,0x0000,RO_EX02
[TX] 01 03 00 56 00 01 64 1A 
[RX] (7 bytes) 01 03 02 00 00 B8 44 
[TX] 01 10 00 56 00 01 02 00 00 AA 66 
[RX] (5 bytes) 01 90 02 CD C1 
0x0056,0x0000,RO_EX02
[TX] 01 03 00 57 00 01 35 DA 
[RX] (7 bytes) 01 03 02 00 00 B8 44 
[TX] 01 10 00 57 00 01 02 00 00 AB B7 
[RX] (5 bytes) 01 90 02 CD C1 
0x0057,0x0000,RO_EX02
[TX] 01 03 00 58 00 01 05 D9 
[RX] (7 bytes) 01 03 02 00 00 B8 44 
[TX] 01 10 00 58 00 01 02 00 00 AB 48 
[RX] (5 bytes) 01 90 02 CD C1 
0x0058,0x0000,RO_EX02
[TX] 01 03 00 59 00 01 54 19 
[RX] (7 bytes) 01 03 02 00 00 B8 44 
[TX] 01 10 00 59 00 01 02 00 00 AA 99 
[RX] (5 bytes) 01 90 02 CD C1 
0x0059,0x0000,RO_EX02
[TX] 01 03 00 5A 00 01 A4 19 
[RX] (7 bytes) 01 03 02 00 00 B8 44 
[TX] 01 10 00 5A 00 01 02 00 00 AA AA 
[RX] (5 bytes) 01 90 02 CD C1 
0x005A,0x0000,RO_EX02
[TX] 01 03 00 5B 00 01 F5 D9 
[RX] (7 bytes) 01 03 02 00 00 B8 44 
[TX] 01 10 00 5B 00 01 02 00 00 AB 7B 
[RX] (5 bytes) 01 90 02 CD C1 
0x005B,0x0000,RO_EX02
[TX] 01 03 00 5C 00 01 44 18 
[RX] (7 bytes) 01 03 02 00 00 B8 44 
[TX] 01 10 00 5C 00 01 02 00 00 AA CC 
[RX] (5 bytes) 01 90 02 CD C1 
0x005C,0x0000,RO_EX02
[TX] 01 03 00 5D 00 01 15 D8 
[RX] (7 bytes) 01 03 02 00 00 B8 44 
[TX] 01 10 00 5D 00 01 02 00 00 AB 1D 
[RX] (5 bytes) 01 90 02 CD C1 
0x005D,0x0000,RO_EX02
[TX] 01 03 00 5E 00 01 E5 D8 
[RX] (7 bytes) 01 03 02 00 00 B8 44 
[TX] 01 10 00 5E 00 01 02 00 00 AB 2E 
[RX] (5 bytes) 01 90 02 CD C1 
0x005E,0x0000,RO_EX02
[TX] 01 03 00 5F 00 01 B4 18 
[RX] (7 bytes) 01 03 02 00 00 B8 44 
[TX] 01 10 00 5F 00 01 02 00 00 AA FF 
[RX] (5 bytes) 01 90 02 CD C1 
0x005F,0x0000,RO_EX02
[TX] 01 03 00 60 00 01 84 14 
[RX] (7 bytes) 01 03 02 00 00 B8 44 
[TX] 01 10 00 60 00 01 02 00 00 AF F0 
[RX] (5 bytes) 01 90 02 CD C1 
0x0060,0x0000,RO_EX02
[TX] 01 03 00 61 00 01 D5 D4 
[RX] (7 bytes) 01 03 02 00 00 B8 44 
[TX] 01 10 00 61 00 01 02 00 00 AE 21 
[RX] (5 bytes) 01 90 02 CD C1 
0x0061,0x0000,RO_EX02
[TX] 01 03 00 62 00 01 25 D4 
[RX] (7 bytes) 01 03 02 00 00 B8 44 
[TX] 01 10 00 62 00 01 02 00 00 AE 12 
[RX] (5 bytes) 01 90 02 CD C1 
0x0062,0x0000,RO_EX02
[TX] 01 03 00 63 00 01 74 14 
[RX] (7 bytes) 01 03 02 00 00 B8 44 
[TX] 01 10 00 63 00 01 02 00 00 AF C3 
[RX] (5 bytes) 01 90 02 CD C1 
0x0063,0x0000,RO_EX02
[TX] 01 03 00 64 00 01 C5 D5 
[RX] (7 bytes) 01 03 02 00 00 B8 44 
[TX] 01 10 00 64 00 01 02 00 00 AE 74 
[RX] (5 bytes) 01 90 02 CD C1 
0x0064,0x0000,RO_EX02
[TX] 01 03 00 65 00 01 94 15 
[RX] (7 bytes) 01 03 02 00 00 B8 44 
[TX] 01 10 00 65 00 01 02 00 00 AF A5 
[RX] (5 bytes) 01 90 02 CD C1 
0x0065,0x0000,RO_EX02
[TX] 01 03 00 66 00 01 64 15 
[RX] (7 bytes) 01 03 02 00 00 B8 44 
[TX] 01 10 00 66 00 01 02 00 00 AF 96 
[RX] (5 bytes) 01 90 02 CD C1 
0x0066,0x0000,RO_EX02
[TX] 01 03 00 67 00 01 35 D5 
[RX] (7 bytes) 01 03 02 00 00 B8 44 
[TX] 01 10 00 67 00 01 02 00 00 AE 47 
[RX] (5 bytes) 01 90 02 CD C1 
0x0067,0x0000,RO_EX02
[TX] 01 03 00 68 00 01 05 D6 
[RX] (7 bytes) 01 03 02 00 00 B8 44 
[TX] 01 10 00 68 00 01 02 00 00 AE B8 
[RX] (5 bytes) 01 90 02 CD C1 
0x0068,0x0000,RO_EX02
[TX] 01 03 00 69 00 01 54 16 
[RX] (7 bytes) 01 03 02 00 00 B8 44 
[TX] 01 10 00 69 00 01 02 00 00 AF 69 
[RX] (5 bytes) 01 90 02 CD C1 
0x0069,0x0000,RO_EX02
[TX] 01 03 00 6A 00 01 A4 16 
[RX] (7 bytes) 01 03 02 00 00 B8 44 
[TX] 01 10 00 6A 00 01 02 00 00 AF 5A 
[RX] (5 bytes) 01 90 02 CD C1 
0x006A,0x0000,RO_EX02
[TX] 01 03 00 6B 00 01 F5 D6 
[RX] (7 bytes) 01 03 02 00 00 B8 44 
[TX] 01 10 00 6B 00 01 02 00 00 AE 8B 
[RX] (5 bytes) 01 90 02 CD C1 
0x006B,0x0000,RO_EX02
[TX] 01 03 00 6C 00 01 44 17 
[RX] (7 bytes) 01 03 02 00 00 B8 44 
[TX] 01 10 00 6C 00 01 02 00 00 AF 3C 
[RX] (5 bytes) 01 90 02 CD C1 
0x006C,0x0000,RO_EX02
[TX] 01 03 00 6D 00 01 15 D7 
[RX] (7 bytes) 01 03 02 00 00 B8 44 
[TX] 01 10 00 6D 00 01 02 00 00 AE ED 
[RX] (5 bytes) 01 90 02 CD C1 
0x006D,0x0000,RO_EX02
[TX] 01 03 00 6E 00 01 E5 D7 
[RX] (7 bytes) 01 03 02 00 00 B8 44 
[TX] 01 10 00 6E 00 01 02 00 00 AE DE 
[RX] (5 bytes) 01 90 02 CD C1 
0x006E,0x0000,RO_EX02
[TX] 01 03 00 6F 00 01 B4 17 
[RX] (7 bytes) 01 03 02 00 00 B8 44 
[TX] 01 10 00 6F 00 01 02 00 00 AF 0F 
[RX] (5 bytes) 01 90 02 CD C1 
0x006F,0x0000,RO_EX02
[TX] 01 03 00 70 00 01 85 D1 
[RX] (7 bytes) 01 03 02 00 00 B8 44 
[TX] 01 10 00 70 00 01 02 00 00 AD 60 
[RX] (5 bytes) 01 90 02 CD C1 
0x0070,0x0000,RO_EX02
[TX] 01 03 00 71 00 01 D4 11 
[RX] (7 bytes) 01 03 02 00 00 B8 44 
[TX] 01 10 00 71 00 01 02 00 00 AC B1 
[RX] (5 bytes) 01 90 02 CD C1 
0x0071,0x0000,RO_EX02
[TX] 01 03 00 72 00 01 24 11 
[RX] (7 bytes) 01 03 02 00 00 B8 44 
[TX] 01 10 00 72 00 01 02 00 00 AC 82 
[RX] (5 bytes) 01 90 02 CD C1 
0x0072,0x0000,RO_EX02
[TX] 01 03 00 73 00 01 75 D1 
[RX] (7 bytes) 01 03 02 00 00 B8 44 
[TX] 01 10 00 73 00 01 02 00 00 AD 53 
[RX] (5 bytes) 01 90 02 CD C1 
0x0073,0x0000,RO_EX02
[TX] 01 03 00 74 00 01 C4 10 
[RX] (7 bytes) 01 03 02 00 00 B8 44 
[TX] 01 10 00 74 00 01 02 00 00 AC E4 
[RX] (5 bytes) 01 90 02 CD C1 
0x0074,0x0000,RO_EX02
[TX] 01 03 00 75 00 01 95 D0 
[RX] (7 bytes) 01 03 02 00 00 B8 44 
[TX] 01 10 00 75 00 01 02 00 00 AD 35 
[RX] (5 bytes) 01 90 02 CD C1 
0x0075,0x0000,RO_EX02
[TX] 01 03 00 76 00 01 65 D0 
[RX] (7 bytes) 01 03 02 00 00 B8 44 
[TX] 01 10 00 76 00 01 02 00 00 AD 06 
[RX] (5 bytes) 01 90 02 CD C1 
0x0076,0x0000,RO_EX02
[TX] 01 03 00 77 00 01 34 10 
[RX] (7 bytes) 01 03 02 00 00 B8 44 
[TX] 01 10 00 77 00 01 02 00 00 AC D7 
[RX] (5 bytes) 01 90 02 CD C1 
0x0077,0x0000,RO_EX02
[TX] 01 03 00 78 00 01 04 13 
[RX] (7 bytes) 01 03 02 00 00 B8 44 
[TX] 01 10 00 78 00 01 02 00 00 AC 28 
[RX] (5 bytes) 01 90 02 CD C1 
0x0078,0x0000,RO_EX02
[TX] 01 03 00 79 00 01 55 D3 
[RX] (7 bytes) 01 03 02 00 00 B8 44 
[TX] 01 10 00 79 00 01 02 00 00 AD F9 
[RX] (5 bytes) 01 90 02 CD C1 
0x0079,0x0000,RO_EX02
[TX] 01 03 00 7A 00 01 A5 D3 
[RX] (7 bytes) 01 03 02 00 00 B8 44 
[TX] 01 10 00 7A 00 01 02 00 00 AD CA 
[RX] (5 bytes) 01 90 02 CD C1 
0x007A,0x0000,RO_EX02
[TX] 01 03 00 7B 00 01 F4 13 
[RX] (7 bytes) 01 03 02 00 00 B8 44 
[TX] 01 10 00 7B 00 01 02 00 00 AC 1B 
[RX] (5 bytes) 01 90 02 CD C1 
0x007B,0x0000,RO_EX02
[TX] 01 03 00 7C 00 01 45 D2 
[RX] (7 bytes) 01 03 02 00 00 B8 44 
[TX] 01 10 00 7C 00 01 02 00 00 AD AC 
[RX] (5 bytes) 01 90 02 CD C1 
0x007C,0x0000,RO_EX02
[TX] 01 03 00 7D 00 01 14 12 
[RX] (7 bytes) 01 03 02 00 00 B8 44 
[TX] 01 10 00 7D 00 01 02 00 00 AC 7D 
[RX] (5 bytes) 01 90 02 CD C1 
0x007D,0x0000,RO_EX02
[TX] 01 03 00 7E 00 01 E4 12 
[RX] (7 bytes) 01 03 02 00 00 B8 44 
[TX] 01 10 00 7E 00 01 02 00 00 AC 4E 
[RX] (5 bytes) 01 90 02 CD C1 
0x007E,0x0000,RO_EX02
[TX] 01 03 00 7F 00 01 B5 D2 
[RX] (7 bytes) 01 03 02 00 00 B8 44 
[TX] 01 10 00 7F 00 01 02 00 00 AD 9F 
[RX] (5 bytes) 01 90 02 CD C1 
0x007F,0x0000,RO_EX02
[TX] 01 03 00 80 00 01 85 E2 
[RX] (5 bytes) 01 83 02 C0 F1 
[MODBUS] Exception: 0x02 (Gecersiz adres)
[TX] 01 03 00 81 00 01 D4 22 
[RX] (5 bytes) 01 83 02 C0 F1 
[MODBUS] Exception: 0x02 (Gecersiz adres)
[TX] 01 03 00 82 00 01 24 22 
[RX] (5 bytes) 01 83 02 C0 F1 
[MODBUS] Exception: 0x02 (Gecersiz adres)
[TX] 01 03 00 83 00 01 75 E2 
[RX] (5 bytes) 01 83 02 C0 F1 
[MODBUS] Exception: 0x02 (Gecersiz adres)
[TX] 01 03 00 84 00 01 C4 23 
[RX] (5 bytes) 01 83 02 C0 F1 
[MODBUS] Exception: 0x02 (Gecersiz adres)
[TX] 01 03 00 85 00 01 95 E3 
[RX] (5 bytes) 01 83 02 C0 F1 
[MODBUS] Exception: 0x02 (Gecersiz adres)
[TX] 01 03 00 86 00 01 65 E3 
[RX] (5 bytes) 01 83 02 C0 F1 
[MODBUS] Exception: 0x02 (Gecersiz adres)
[TX] 01 03 00 87 00 01 34 23 
[RX] (5 bytes) 01 83 02 C0 F1 
[MODBUS] Exception: 0x02 (Gecersiz adres)
[TX] 01 03 00 88 00 01 04 20 
[RX] (5 bytes) 01 83 02 C0 F1 
[MODBUS] Exception: 0x02 (Gecersiz adres)
[TX] 01 03 00 89 00 01 55 E0 
[RX] (5 bytes) 01 83 02 C0 F1 
[MODBUS] Exception: 0x02 (Gecersiz adres)
[TX] 01 03 00 8A 00 01 A5 E0 
[RX] (5 bytes) 01 83 02 C0 F1 
[MODBUS] Exception: 0x02 (Gecersiz adres)
[TX] 01 03 00 8B 00 01 F4 20 
[RX] (5 bytes) 01 83 02 C0 F1 
[MODBUS] Exception: 0x02 (Gecersiz adres)
[TX] 01 03 00 8C 00 01 45 E1 
[RX] (5 bytes) 01 83 02 C0 F1 
[MODBUS] Exception: 0x02 (Gecersiz adres)
[TX] 01 03 00 8D 00 01 14 21 
[RX] (5 bytes) 01 83 02 C0 F1 
[MODBUS] Exception: 0x02 (Gecersiz adres)
[TX] 01 03 00 8E 00 01 E4 21 
[RX] (5 bytes) 01 83 02 C0 F1 
[MODBUS] Exception: 0x02 (Gecersiz adres)
[TX] 01 03 00 8F 00 01 B5 E1 
[RX] (5 bytes) 01 83 02 C0 F1 
[MODBUS] Exception: 0x02 (Gecersiz adres)
[TX] 01 03 00 90 00 01 84 27 
[RX] (5 bytes) 01 83 02 C0 F1 
[MODBUS] Exception: 0x02 (Gecersiz adres)
[TX] 01 03 00 91 00 01 D5 E7 
[RX] (5 bytes) 01 83 02 C0 F1 
[MODBUS] Exception: 0x02 (Gecersiz adres)
[TX] 01 03 00 92 00 01 25 E7 
[RX] (5 bytes) 01 83 02 C0 F1 
[MODBUS] Exception: 0x02 (Gecersiz adres)
[TX] 01 03 00 93 00 01 74 27 
[RX] (5 bytes) 01 83 02 C0 F1 
[MODBUS] Exception: 0x02 (Gecersiz adres)
[TX] 01 03 00 94 00 01 C5 E6 
[RX] (5 bytes) 01 83 02 C0 F1 
[MODBUS] Exception: 0x02 (Gecersiz adres)
[TX] 01 03 00 95 00 01 94 26 
[RX] (5 bytes) 01 83 02 C0 F1 
[MODBUS] Exception: 0x02 (Gecersiz adres)
[TX] 01 03 00 96 00 01 64 26 
[RX] (5 bytes) 01 83 02 C0 F1 
[MODBUS] Exception: 0x02 (Gecersiz adres)
[TX] 01 03 00 97 00 01 35 E6 
[RX] (5 bytes) 01 83 02 C0 F1 
[MODBUS] Exception: 0x02 (Gecersiz adres)
[TX] 01 03 00 98 00 01 05 E5 
[RX] (5 bytes) 01 83 02 C0 F1 
[MODBUS] Exception: 0x02 (Gecersiz adres)
[TX] 01 03 00 99 00 01 54 25 
[RX] (5 bytes) 01 83 02 C0 F1 
[MODBUS] Exception: 0x02 (Gecersiz adres)
[TX] 01 03 00 9A 00 01 A4 25 
[RX] (5 bytes) 01 83 02 C0 F1 
[MODBUS] Exception: 0x02 (Gecersiz adres)
[TX] 01 03 00 9B 00 01 F5 E5 
[RX] (5 bytes) 01 83 02 C0 F1 
[MODBUS] Exception: 0x02 (Gecersiz adres)
[TX] 01 03 00 9C 00 01 44 24 
[RX] (5 bytes) 01 83 02 C0 F1 
[MODBUS] Exception: 0x02 (Gecersiz adres)
[TX] 01 03 00 9D 00 01 15 E4 
[RX] (5 bytes) 01 83 02 C0 F1 
[MODBUS] Exception: 0x02 (Gecersiz adres)
[TX] 01 03 00 9E 00 01 E5 E4 
[RX] (5 bytes) 01 83 02 C0 F1 
[MODBUS] Exception: 0x02 (Gecersiz adres)
[TX] 01 03 00 9F 00 01 B4 24 
[RX] (5 bytes) 01 83 02 C0 F1 
[MODBUS] Exception: 0x02 (Gecersiz adres)
[TX] 01 03 00 A0 00 01 84 28 
[RX] (5 bytes) 01 83 02 C0 F1 
[MODBUS] Exception: 0x02 (Gecersiz adres)
[TX] 01 03 00 A1 00 01 D5 E8 
[RX] (5 bytes) 01 83 02 C0 F1 
[MODBUS] Exception: 0x02 (Gecersiz adres)
[TX] 01 03 00 A2 00 01 25 E8 
[RX] (5 bytes) 01 83 02 C0 F1 
[MODBUS] Exception: 0x02 (Gecersiz adres)
[TX] 01 03 00 A3 00 01 74 28 
[RX] (5 bytes) 01 83 02 C0 F1 
[MODBUS] Exception: 0x02 (Gecersiz adres)
[TX] 01 03 00 A4 00 01 C5 E9 
[RX] (5 bytes) 01 83 02 C0 F1 
[MODBUS] Exception: 0x02 (Gecersiz adres)
[TX] 01 03 00 A5 00 01 94 29 
[RX] (5 bytes) 01 83 02 C0 F1 
[MODBUS] Exception: 0x02 (Gecersiz adres)
[TX] 01 03 00 A6 00 01 64 29 
[RX] (5 bytes) 01 83 02 C0 F1 
[MODBUS] Exception: 0x02 (Gecersiz adres)
[TX] 01 03 00 A7 00 01 35 E9 
[RX] (5 bytes) 01 83 02 C0 F1 
[MODBUS] Exception: 0x02 (Gecersiz adres)
[TX] 01 03 00 A8 00 01 05 EA 
[RX] (5 bytes) 01 83 02 C0 F1 
[MODBUS] Exception: 0x02 (Gecersiz adres)
[TX] 01 03 00 A9 00 01 54 2A 
[RX] (5 bytes) 01 83 02 C0 F1 
[MODBUS] Exception: 0x02 (Gecersiz adres)
[TX] 01 03 00 AA 00 01 A4 2A 
[RX] (5 bytes) 01 83 02 C0 F1 
[MODBUS] Exception: 0x02 (Gecersiz adres)
[TX] 01 03 00 AB 00 01 F5 EA 
[RX] (5 bytes) 01 83 02 C0 F1 
[MODBUS] Exception: 0x02 (Gecersiz adres)
[TX] 01 03 00 AC 00 01 44 2B 
[RX] (5 bytes) 01 83 02 C0 F1 
[MODBUS] Exception: 0x02 (Gecersiz adres)
[TX] 01 03 00 AD 00 01 15 EB 
[RX] (5 bytes) 01 83 02 C0 F1 
[MODBUS] Exception: 0x02 (Gecersiz adres)
[TX] 01 03 00 AE 00 01 E5 EB 
[RX] (5 bytes) 01 83 02 C0 F1 
[MODBUS] Exception: 0x02 (Gecersiz adres)
[TX] 01 03 00 AF 00 01 B4 2B 
[RX] (5 bytes) 01 83 02 C0 F1 
[MODBUS] Exception: 0x02 (Gecersiz adres)
[TX] 01 03 00 B0 00 01 85 ED 
[RX] (5 bytes) 01 83 02 C0 F1 
[MODBUS] Exception: 0x02 (Gecersiz adres)
[TX] 01 03 00 B1 00 01 D4 2D 
[RX] (5 bytes) 01 83 02 C0 F1 
[MODBUS] Exception: 0x02 (Gecersiz adres)
[TX] 01 03 00 B2 00 01 24 2D 
[RX] (5 bytes) 01 83 02 C0 F1 
[MODBUS] Exception: 0x02 (Gecersiz adres)
[TX] 01 03 00 B3 00 01 75 ED 
[RX] (5 bytes) 01 83 02 C0 F1 
[MODBUS] Exception: 0x02 (Gecersiz adres)
[TX] 01 03 00 B4 00 01 C4 2C 
[RX] (5 bytes) 01 83 02 C0 F1 
[MODBUS] Exception: 0x02 (Gecersiz adres)
[TX] 01 03 00 B5 00 01 95 EC 
[RX] (5 bytes) 01 83 02 C0 F1 
[MODBUS] Exception: 0x02 (Gecersiz adres)
[TX] 01 03 00 B6 00 01 65 EC 
[RX] (5 bytes) 01 83 02 C0 F1 
[MODBUS] Exception: 0x02 (Gecersiz adres)
[TX] 01 03 00 B7 00 01 34 2C 
[RX] (5 bytes) 01 83 02 C0 F1 
[MODBUS] Exception: 0x02 (Gecersiz adres)
[TX] 01 03 00 B8 00 01 04 2F 
[RX] (5 bytes) 01 83 02 C0 F1 
[MODBUS] Exception: 0x02 (Gecersiz adres)
[TX] 01 03 00 B9 00 01 55 EF 
[RX] (5 bytes) 01 83 02 C0 F1 
[MODBUS] Exception: 0x02 (Gecersiz adres)
[TX] 01 03 00 BA 00 01 A5 EF 
[RX] (5 bytes) 01 83 02 C0 F1 
[MODBUS] Exception: 0x02 (Gecersiz adres)
[TX] 01 03 00 BB 00 01 F4 2F 
[RX] (5 bytes) 01 83 02 C0 F1 
[MODBUS] Exception: 0x02 (Gecersiz adres)
[TX] 01 03 00 BC 00 01 45 EE 
[RX] (5 bytes) 01 83 02 C0 F1 
[MODBUS] Exception: 0x02 (Gecersiz adres)
[TX] 01 03 00 BD 00 01 14 2E 
[RX] (5 bytes) 01 83 02 C0 F1 
[MODBUS] Exception: 0x02 (Gecersiz adres)
[TX] 01 03 00 BE 00 01 E4 2E 
[RX] (5 bytes) 01 83 02 C0 F1 
[MODBUS] Exception: 0x02 (Gecersiz adres)
[TX] 01 03 00 BF 00 01 B5 EE 
[RX] (5 bytes) 01 83 02 C0 F1 
[MODBUS] Exception: 0x02 (Gecersiz adres)
[TX] 01 03 00 C0 00 01 84 36 
[RX] (5 bytes) 01 83 02 C0 F1 
[MODBUS] Exception: 0x02 (Gecersiz adres)
[TX] 01 03 00 C1 00 01 D5 F6 
[RX] (5 bytes) 01 83 02 C0 F1 
[MODBUS] Exception: 0x02 (Gecersiz adres)
[TX] 01 03 00 C2 00 01 25 F6 
[RX] (5 bytes) 01 83 02 C0 F1 
[MODBUS] Exception: 0x02 (Gecersiz adres)
[TX] 01 03 00 C3 00 01 74 36 
[RX] (5 bytes) 01 83 02 C0 F1 
[MODBUS] Exception: 0x02 (Gecersiz adres)
[TX] 01 03 00 C4 00 01 C5 F7 
[RX] (5 bytes) 01 83 02 C0 F1 
[MODBUS] Exception: 0x02 (Gecersiz adres)
[TX] 01 03 00 C5 00 01 94 37 
[RX] (5 bytes) 01 83 02 C0 F1 
[MODBUS] Exception: 0x02 (Gecersiz adres)
[TX] 01 03 00 C6 00 01 64 37 
[RX] (5 bytes) 01 83 02 C0 F1 
[MODBUS] Exception: 0x02 (Gecersiz adres)
[TX] 01 03 00 C7 00 01 35 F7 
[RX] (5 bytes) 01 83 02 C0 F1 
[MODBUS] Exception: 0x02 (Gecersiz adres)
[TX] 01 03 00 C8 00 01 05 F4 
[RX] (5 bytes) 01 83 02 C0 F1 
[MODBUS] Exception: 0x02 (Gecersiz adres)
[TX] 01 03 00 C9 00 01 54 34 
[RX] (5 bytes) 01 83 02 C0 F1 
[MODBUS] Exception: 0x02 (Gecersiz adres)
[TX] 01 03 00 CA 00 01 A4 34 
[RX] (5 bytes) 01 83 02 C0 F1 
[MODBUS] Exception: 0x02 (Gecersiz adres)
[TX] 01 03 00 CB 00 01 F5 F4 
[RX] (5 bytes) 01 83 02 C0 F1 
[MODBUS] Exception: 0x02 (Gecersiz adres)
[TX] 01 03 00 CC 00 01 44 35 
[RX] (5 bytes) 01 83 02 C0 F1 
[MODBUS] Exception: 0x02 (Gecersiz adres)
[TX] 01 03 00 CD 00 01 15 F5 
[RX] (5 bytes) 01 83 02 C0 F1 
[MODBUS] Exception: 0x02 (Gecersiz adres)
[TX] 01 03 00 CE 00 01 E5 F5 
[RX] (5 bytes) 01 83 02 C0 F1 
[MODBUS] Exception: 0x02 (Gecersiz adres)
[TX] 01 03 00 CF 00 01 B4 35 
[RX] (5 bytes) 01 83 02 C0 F1 
[MODBUS] Exception: 0x02 (Gecersiz adres)
[TX] 01 03 00 D0 00 01 85 F3 
[RX] (5 bytes) 01 83 02 C0 F1 
[MODBUS] Exception: 0x02 (Gecersiz adres)
[TX] 01 03 00 D1 00 01 D4 33 
[RX] (5 bytes) 01 83 02 C0 F1 
[MODBUS] Exception: 0x02 (Gecersiz adres)
[TX] 01 03 00 D2 00 01 24 33 
[RX] (5 bytes) 01 83 02 C0 F1 
[MODBUS] Exception: 0x02 (Gecersiz adres)
[TX] 01 03 00 D3 00 01 75 F3 
[RX] (5 bytes) 01 83 02 C0 F1 
[MODBUS] Exception: 0x02 (Gecersiz adres)
[TX] 01 03 00 D4 00 01 C4 32 
[RX] (5 bytes) 01 83 02 C0 F1 
[MODBUS] Exception: 0x02 (Gecersiz adres)
[TX] 01 03 00 D5 00 01 95 F2 
[RX] (5 bytes) 01 83 02 C0 F1 
[MODBUS] Exception: 0x02 (Gecersiz adres)
[TX] 01 03 00 D6 00 01 65 F2 
[RX] (5 bytes) 01 83 02 C0 F1 
[MODBUS] Exception: 0x02 (Gecersiz adres)
[TX] 01 03 00 D7 00 01 34 32 
[RX] (5 bytes) 01 83 02 C0 F1 
[MODBUS] Exception: 0x02 (Gecersiz adres)
[TX] 01 03 00 D8 00 01 04 31 
[RX] (5 bytes) 01 83 02 C0 F1 
[MODBUS] Exception: 0x02 (Gecersiz adres)
[TX] 01 03 00 D9 00 01 55 F1 
[RX] (5 bytes) 01 83 02 C0 F1 
[MODBUS] Exception: 0x02 (Gecersiz adres)
[TX] 01 03 00 DA 00 01 A5 F1 
[RX] (5 bytes) 01 83 02 C0 F1 
[MODBUS] Exception: 0x02 (Gecersiz adres)
[TX] 01 03 00 DB 00 01 F4 31 
[RX] (5 bytes) 01 83 02 C0 F1 
[MODBUS] Exception: 0x02 (Gecersiz adres)
[TX] 01 03 00 DC 00 01 45 F0 
[RX] (5 bytes) 01 83 02 C0 F1 
[MODBUS] Exception: 0x02 (Gecersiz adres)
[TX] 01 03 00 DD 00 01 14 30 
[RX] (5 bytes) 01 83 02 C0 F1 
[MODBUS] Exception: 0x02 (Gecersiz adres)
[TX] 01 03 00 DE 00 01 E4 30 
[RX] (5 bytes) 01 83 02 C0 F1 
[MODBUS] Exception: 0x02 (Gecersiz adres)
[TX] 01 03 00 DF 00 01 B5 F0 
[RX] (5 bytes) 01 83 02 C0 F1 
[MODBUS] Exception: 0x02 (Gecersiz adres)
[TX] 01 03 00 E0 00 01 85 FC 
[RX] (5 bytes) 01 83 02 C0 F1 
[MODBUS] Exception: 0x02 (Gecersiz adres)
[TX] 01 03 00 E1 00 01 D4 3C 
[RX] (5 bytes) 01 83 02 C0 F1 
[MODBUS] Exception: 0x02 (Gecersiz adres)
[TX] 01 03 00 E2 00 01 24 3C 
[RX] (5 bytes) 01 83 02 C0 F1 
[MODBUS] Exception: 0x02 (Gecersiz adres)
[TX] 01 03 00 E3 00 01 75 FC 
[RX] (5 bytes) 01 83 02 C0 F1 
[MODBUS] Exception: 0x02 (Gecersiz adres)
[TX] 01 03 00 E4 00 01 C4 3D 
[RX] (5 bytes) 01 83 02 C0 F1 
[MODBUS] Exception: 0x02 (Gecersiz adres)
[TX] 01 03 00 E5 00 01 95 FD 
[RX] (5 bytes) 01 83 02 C0 F1 
[MODBUS] Exception: 0x02 (Gecersiz adres)
[TX] 01 03 00 E6 00 01 65 FD 
[RX] (5 bytes) 01 83 02 C0 F1 
[MODBUS] Exception: 0x02 (Gecersiz adres)
[TX] 01 03 00 E7 00 01 34 3D 
[RX] (5 bytes) 01 83 02 C0 F1 
[MODBUS] Exception: 0x02 (Gecersiz adres)
[TX] 01 03 00 E8 00 01 04 3E 
[RX] (5 bytes) 01 83 02 C0 F1 
[MODBUS] Exception: 0x02 (Gecersiz adres)
[TX] 01 03 00 E9 00 01 55 FE 
[RX] (5 bytes) 01 83 02 C0 F1 
[MODBUS] Exception: 0x02 (Gecersiz adres)
[TX] 01 03 00 EA 00 01 A5 FE 
[RX] (5 bytes) 01 83 02 C0 F1 
[MODBUS] Exception: 0x02 (Gecersiz adres)
[TX] 01 03 00 EB 00 01 F4 3E 
[RX] (5 bytes) 01 83 02 C0 F1 
[MODBUS] Exception: 0x02 (Gecersiz adres)
[TX] 01 03 00 EC 00 01 45 FF 
[RX] (5 bytes) 01 83 02 C0 F1 
[MODBUS] Exception: 0x02 (Gecersiz adres)
[TX] 01 03 00 ED 00 01 14 3F 
[RX] (5 bytes) 01 83 02 C0 F1 
[MODBUS] Exception: 0x02 (Gecersiz adres)
[TX] 01 03 00 EE 00 01 E4 3F 
[RX] (5 bytes) 01 83 02 C0 F1 
[MODBUS] Exception: 0x02 (Gecersiz adres)
[TX] 01 03 00 EF 00 01 B5 FF 
[RX] (5 bytes) 01 83 02 C0 F1 
[MODBUS] Exception: 0x02 (Gecersiz adres)
[TX] 01 03 00 F0 00 01 84 39 
[RX] (5 bytes) 01 83 02 C0 F1 
[MODBUS] Exception: 0x02 (Gecersiz adres)
[TX] 01 03 00 F1 00 01 D5 F9 
[RX] (5 bytes) 01 83 02 C0 F1 
[MODBUS] Exception: 0x02 (Gecersiz adres)
[TX] 01 03 00 F2 00 01 25 F9 
[RX] (5 bytes) 01 83 02 C0 F1 
[MODBUS] Exception: 0x02 (Gecersiz adres)
[TX] 01 03 00 F3 00 01 74 39 
[RX] (5 bytes) 01 83 02 C0 F1 
[MODBUS] Exception: 0x02 (Gecersiz adres)
[TX] 01 03 00 F4 00 01 C5 F8 
[RX] (5 bytes) 01 83 02 C0 F1 
[MODBUS] Exception: 0x02 (Gecersiz adres)
[TX] 01 03 00 F5 00 01 94 38 
[RX] (5 bytes) 01 83 02 C0 F1 
[MODBUS] Exception: 0x02 (Gecersiz adres)
[TX] 01 03 00 F6 00 01 64 38 
[RX] (5 bytes) 01 83 02 C0 F1 
[MODBUS] Exception: 0x02 (Gecersiz adres)
[TX] 01 03 00 F7 00 01 35 F8 
[RX] (5 bytes) 01 83 02 C0 F1 
[MODBUS] Exception: 0x02 (Gecersiz adres)
[TX] 01 03 00 F8 00 01 05 FB 
[RX] (5 bytes) 01 83 02 C0 F1 
[MODBUS] Exception: 0x02 (Gecersiz adres)
[TX] 01 03 00 F9 00 01 54 3B 
[RX] (5 bytes) 01 83 02 C0 F1 
[MODBUS] Exception: 0x02 (Gecersiz adres)
[TX] 01 03 00 FA 00 01 A4 3B 
[RX] (5 bytes) 01 83 02 C0 F1 
[MODBUS] Exception: 0x02 (Gecersiz adres)
[TX] 01 03 00 FB 00 01 F5 FB 
[RX] (5 bytes) 01 83 02 C0 F1 
[MODBUS] Exception: 0x02 (Gecersiz adres)
[TX] 01 03 00 FC 00 01 44 3A 
[RX] (5 bytes) 01 83 02 C0 F1 
[MODBUS] Exception: 0x02 (Gecersiz adres)
[TX] 01 03 00 FD 00 01 15 FA 
[RX] (5 bytes) 01 83 02 C0 F1 
[MODBUS] Exception: 0x02 (Gecersiz adres)
[TX] 01 03 00 FE 00 01 E5 FA 
[RX] (5 bytes) 01 83 02 C0 F1 
[MODBUS] Exception: 0x02 (Gecersiz adres)
[TX] 01 03 00 FF 00 01 B4 3A 
[RX] (5 bytes) 01 83 02 C0 F1 
[MODBUS] Exception: 0x02 (Gecersiz adres)
[TX] 01 03 01 00 00 01 85 F6 
[RX] (5 bytes) 01 83 02 C0 F1 
[MODBUS] Exception: 0x02 (Gecersiz adres)
[TX] 01 03 01 01 00 01 D4 36 
[RX] (5 bytes) 01 83 02 C0 F1 
[MODBUS] Exception: 0x02 (Gecersiz adres)
[TX] 01 03 01 02 00 01 24 36 
[RX] (5 bytes) 01 83 02 C0 F1 
[MODBUS] Exception: 0x02 (Gecersiz adres)
[TX] 01 03 01 03 00 01 75 F6 
[RX] (5 bytes) 01 83 02 C0 F1 
[MODBUS] Exception: 0x02 (Gecersiz adres)
[TX] 01 03 01 04 00 01 C4 37 
[RX] (5 bytes) 01 83 02 C0 F1 
[MODBUS] Exception: 0x02 (Gecersiz adres)
[TX] 01 03 01 05 00 01 95 F7 
[RX] (5 bytes) 01 83 02 C0 F1 
[MODBUS] Exception: 0x02 (Gecersiz adres)
[TX] 01 03 01 06 00 01 65 F7 
[RX] (5 bytes) 01 83 02 C0 F1 
[MODBUS] Exception: 0x02 (Gecersiz adres)
[TX] 01 03 01 07 00 01 34 37 
[RX] (5 bytes) 01 83 02 C0 F1 
[MODBUS] Exception: 0x02 (Gecersiz adres)
[TX] 01 03 01 08 00 01 04 34 
[RX] (5 bytes) 01 83 02 C0 F1 
[MODBUS] Exception: 0x02 (Gecersiz adres)
[TX] 01 03 01 09 00 01 55 F4 
[RX] (5 bytes) 01 83 02 C0 F1 
[MODBUS] Exception: 0x02 (Gecersiz adres)
[TX] 01 03 01 0A 00 01 A5 F4 
[RX] (5 bytes) 01 83 02 C0 F1 
[MODBUS] Exception: 0x02 (Gecersiz adres)
[TX] 01 03 01 0B 00 01 F4 34 
[RX] (5 bytes) 01 83 02 C0 F1 
[MODBUS] Exception: 0x02 (Gecersiz adres)
[TX] 01 03 01 0C 00 01 45 F5 
[RX] (5 bytes) 01 83 02 C0 F1 
[MODBUS] Exception: 0x02 (Gecersiz adres)
[TX] 01 03 01 0D 00 01 14 35 
[RX] (5 bytes) 01 83 02 C0 F1 
[MODBUS] Exception: 0x02 (Gecersiz adres)
[TX] 01 03 01 0E 00 01 E4 35 
[RX] (5 bytes) 01 83 02 C0 F1 
[MODBUS] Exception: 0x02 (Gecersiz adres)
[TX] 01 03 01 0F 00 01 B5 F5 
[RX] (5 bytes) 01 83 02 C0 F1 
[MODBUS] Exception: 0x02 (Gecersiz adres)
[TX] 01 03 01 10 00 01 84 33 
[RX] (5 bytes) 01 83 02 C0 F1 
[MODBUS] Exception: 0x02 (Gecersiz adres)
[TX] 01 03 01 11 00 01 D5 F3 
[RX] (5 bytes) 01 83 02 C0 F1 
[MODBUS] Exception: 0x02 (Gecersiz adres)
[TX] 01 03 01 12 00 01 25 F3 
[RX] (5 bytes) 01 83 02 C0 F1 
[MODBUS] Exception: 0x02 (Gecersiz adres)
[TX] 01 03 01 13 00 01 74 33 
[RX] (5 bytes) 01 83 02 C0 F1 
[MODBUS] Exception: 0x02 (Gecersiz adres)
[TX] 01 03 01 14 00 01 C5 F2 
[RX] (5 bytes) 01 83 02 C0 F1 
[MODBUS] Exception: 0x02 (Gecersiz adres)
[TX] 01 03 01 15 00 01 94 32 
[RX] (5 bytes) 01 83 02 C0 F1 
[MODBUS] Exception: 0x02 (Gecersiz adres)
[TX] 01 03 01 16 00 01 64 32 
[RX] (5 bytes) 01 83 02 C0 F1 
[MODBUS] Exception: 0x02 (Gecersiz adres)
[TX] 01 03 01 17 00 01 35 F2 
[RX] (5 bytes) 01 83 02 C0 F1 
[MODBUS] Exception: 0x02 (Gecersiz adres)
[TX] 01 03 01 18 00 01 05 F1 
[RX] (5 bytes) 01 83 02 C0 F1 
[MODBUS] Exception: 0x02 (Gecersiz adres)
[TX] 01 03 01 19 00 01 54 31 
[RX] (5 bytes) 01 83 02 C0 F1 
[MODBUS] Exception: 0x02 (Gecersiz adres)
[TX] 01 03 01 1A 00 01 A4 31 
[RX] (5 bytes) 01 83 02 C0 F1 
[MODBUS] Exception: 0x02 (Gecersiz adres)
[TX] 01 03 01 1B 00 01 F5 F1 
[RX] (5 bytes) 01 83 02 C0 F1 
[MODBUS] Exception: 0x02 (Gecersiz adres)
[TX] 01 03 01 1C 00 01 44 30 
[RX] (5 bytes) 01 83 02 C0 F1 
[MODBUS] Exception: 0x02 (Gecersiz adres)
[TX] 01 03 01 1D 00 01 15 F0 
[RX] (5 bytes) 01 83 02 C0 F1 
[MODBUS] Exception: 0x02 (Gecersiz adres)
[TX] 01 03 01 1E 00 01 E5 F0 
[RX] (5 bytes) 01 83 02 C0 F1 
[MODBUS] Exception: 0x02 (Gecersiz adres)
[TX] 01 03 01 1F 00 01 B4 30 
[RX] (5 bytes) 01 83 02 C0 F1 
[MODBUS] Exception: 0x02 (Gecersiz adres)
[TX] 01 03 01 20 00 01 84 3C 
[RX] (5 bytes) 01 83 02 C0 F1 
[MODBUS] Exception: 0x02 (Gecersiz adres)
[TX] 01 03 01 21 00 01 D5 FC 
[RX] (5 bytes) 01 83 02 C0 F1 
[MODBUS] Exception: 0x02 (Gecersiz adres)
[TX] 01 03 01 22 00 01 25 FC 
[RX] (5 bytes) 01 83 02 C0 F1 
[MODBUS] Exception: 0x02 (Gecersiz adres)
[TX] 01 03 01 23 00 01 74 3C 
[RX] (5 bytes) 01 83 02 C0 F1 
[MODBUS] Exception: 0x02 (Gecersiz adres)
[TX] 01 03 01 24 00 01 C5 FD 
[RX] (5 bytes) 01 83 02 C0 F1 
[MODBUS] Exception: 0x02 (Gecersiz adres)
[TX] 01 03 01 25 00 01 94 3D 
[RX] (5 bytes) 01 83 02 C0 F1 
[MODBUS] Exception: 0x02 (Gecersiz adres)
[TX] 01 03 01 26 00 01 64 3D 
[RX] (5 bytes) 01 83 02 C0 F1 
[MODBUS] Exception: 0x02 (Gecersiz adres)
[TX] 01 03 01 27 00 01 35 FD 
[RX] (5 bytes) 01 83 02 C0 F1 
[MODBUS] Exception: 0x02 (Gecersiz adres)
[TX] 01 03 01 28 00 01 05 FE 
[RX] (5 bytes) 01 83 02 C0 F1 
[MODBUS] Exception: 0x02 (Gecersiz adres)
[TX] 01 03 01 29 00 01 54 3E 
[RX] (5 bytes) 01 83 02 C0 F1 
[MODBUS] Exception: 0x02 (Gecersiz adres)
[TX] 01 03 01 2A 00 01 A4 3E 
[RX] (5 bytes) 01 83 02 C0 F1 
[MODBUS] Exception: 0x02 (Gecersiz adres)
[TX] 01 03 01 2B 00 01 F5 FE 
[RX] (5 bytes) 01 83 02 C0 F1 
[MODBUS] Exception: 0x02 (Gecersiz adres)
[TX] 01 03 01 2C 00 01 44 3F 
[RX] (5 bytes) 01 83 02 C0 F1 
[MODBUS] Exception: 0x02 (Gecersiz adres)
[TX] 01 03 01 2D 00 01 15 FF 
[RX] (5 bytes) 01 83 02 C0 F1 
[MODBUS] Exception: 0x02 (Gecersiz adres)
[TX] 01 03 01 2E 00 01 E5 FF 
[RX] (5 bytes) 01 83 02 C0 F1 
[MODBUS] Exception: 0x02 (Gecersiz adres)
[TX] 01 03 01 2F 00 01 B4 3F 
[RX] (5 bytes) 01 83 02 C0 F1 
[MODBUS] Exception: 0x02 (Gecersiz adres)
[TX] 01 03 01 30 00 01 85 F9 
[RX] (5 bytes) 01 83 02 C0 F1 
[MODBUS] Exception: 0x02 (Gecersiz adres)
[TX] 01 03 01 31 00 01 D4 39 
[RX] (5 bytes) 01 83 02 C0 F1 
[MODBUS] Exception: 0x02 (Gecersiz adres)
[TX] 01 03 01 32 00 01 24 39 
[RX] (5 bytes) 01 83 02 C0 F1 
[MODBUS] Exception: 0x02 (Gecersiz adres)
[TX] 01 03 01 33 00 01 75 F9 
[RX] (5 bytes) 01 83 02 C0 F1 
[MODBUS] Exception: 0x02 (Gecersiz adres)
[TX] 01 03 01 34 00 01 C4 38 
[RX] (5 bytes) 01 83 02 C0 F1 
[MODBUS] Exception: 0x02 (Gecersiz adres)
[TX] 01 03 01 35 00 01 95 F8 
[RX] (5 bytes) 01 83 02 C0 F1 
[MODBUS] Exception: 0x02 (Gecersiz adres)
[TX] 01 03 01 36 00 01 65 F8 
[RX] (5 bytes) 01 83 02 C0 F1 
[MODBUS] Exception: 0x02 (Gecersiz adres)
[TX] 01 03 01 37 00 01 34 38 
[RX] (5 bytes) 01 83 02 C0 F1 
[MODBUS] Exception: 0x02 (Gecersiz adres)
[TX] 01 03 01 38 00 01 04 3B 
[RX] (5 bytes) 01 83 02 C0 F1 
[MODBUS] Exception: 0x02 (Gecersiz adres)
[TX] 01 03 01 39 00 01 55 FB 
[RX] (5 bytes) 01 83 02 C0 F1 
[MODBUS] Exception: 0x02 (Gecersiz adres)
[TX] 01 03 01 3A 00 01 A5 FB 
[RX] (5 bytes) 01 83 02 C0 F1 
[MODBUS] Exception: 0x02 (Gecersiz adres)
[TX] 01 03 01 3B 00 01 F4 3B 
[RX] (5 bytes) 01 83 02 C0 F1 
[MODBUS] Exception: 0x02 (Gecersiz adres)
[TX] 01 03 01 3C 00 01 45 FA 
[RX] (5 bytes) 01 83 02 C0 F1 
[MODBUS] Exception: 0x02 (Gecersiz adres)
[TX] 01 03 01 3D 00 01 14 3A 
[RX] (5 bytes) 01 83 02 C0 F1 
[MODBUS] Exception: 0x02 (Gecersiz adres)
[TX] 01 03 01 3E 00 01 E4 3A 
[RX] (5 bytes) 01 83 02 C0 F1 
[MODBUS] Exception: 0x02 (Gecersiz adres)
[TX] 01 03 01 3F 00 01 B5 FA 
[RX] (5 bytes) 01 83 02 C0 F1 
[MODBUS] Exception: 0x02 (Gecersiz adres)
[TX] 01 03 01 40 00 01 84 22 
[RX] (5 bytes) 01 83 02 C0 F1 
[MODBUS] Exception: 0x02 (Gecersiz adres)
[TX] 01 03 01 41 00 01 D5 E2 
[RX] (5 bytes) 01 83 02 C0 F1 
[MODBUS] Exception: 0x02 (Gecersiz adres)
[TX] 01 03 01 42 00 01 25 E2 
[RX] (5 bytes) 01 83 02 C0 F1 
[MODBUS] Exception: 0x02 (Gecersiz adres)
[TX] 01 03 01 43 00 01 74 22 
[RX] (5 bytes) 01 83 02 C0 F1 
[MODBUS] Exception: 0x02 (Gecersiz adres)
[TX] 01 03 01 44 00 01 C5 E3 
[RX] (5 bytes) 01 83 02 C0 F1 
[MODBUS] Exception: 0x02 (Gecersiz adres)
[TX] 01 03 01 45 00 01 94 23 
[RX] (5 bytes) 01 83 02 C0 F1 
[MODBUS] Exception: 0x02 (Gecersiz adres)
[TX] 01 03 01 46 00 01 64 23 
[RX] (5 bytes) 01 83 02 C0 F1 
[MODBUS] Exception: 0x02 (Gecersiz adres)
[TX] 01 03 01 47 00 01 35 E3 
[RX] (5 bytes) 01 83 02 C0 F1 
[MODBUS] Exception: 0x02 (Gecersiz adres)
[TX] 01 03 01 48 00 01 05 E0 
[RX] (5 bytes) 01 83 02 C0 F1 
[MODBUS] Exception: 0x02 (Gecersiz adres)
[TX] 01 03 01 49 00 01 54 20 
[RX] (5 bytes) 01 83 02 C0 F1 
[MODBUS] Exception: 0x02 (Gecersiz adres)
[TX] 01 03 01 4A 00 01 A4 20 
[RX] (5 bytes) 01 83 02 C0 F1 
[MODBUS] Exception: 0x02 (Gecersiz adres)
[TX] 01 03 01 4B 00 01 F5 E0 
[RX] (5 bytes) 01 83 02 C0 F1 
[MODBUS] Exception: 0x02 (Gecersiz adres)
[TX] 01 03 01 4C 00 01 44 21 
[RX] (5 bytes) 01 83 02 C0 F1 
[MODBUS] Exception: 0x02 (Gecersiz adres)
[TX] 01 03 01 4D 00 01 15 E1 
[RX] (5 bytes) 01 83 02 C0 F1 
[MODBUS] Exception: 0x02 (Gecersiz adres)
[TX] 01 03 01 4E 00 01 E5 E1 
[RX] (5 bytes) 01 83 02 C0 F1 
[MODBUS] Exception: 0x02 (Gecersiz adres)
[TX] 01 03 01 4F 00 01 B4 21 
[RX] (5 bytes) 01 83 02 C0 F1 
[MODBUS] Exception: 0x02 (Gecersiz adres)
[TX] 01 03 01 50 00 01 85 E7 
[RX] (5 bytes) 01 83 02 C0 F1 
[MODBUS] Exception: 0x02 (Gecersiz adres)
[TX] 01 03 01 51 00 01 D4 27 
[RX] (5 bytes) 01 83 02 C0 F1 
[MODBUS] Exception: 0x02 (Gecersiz adres)
[TX] 01 03 01 52 00 01 24 27 
[RX] (5 bytes) 01 83 02 C0 F1 
[MODBUS] Exception: 0x02 (Gecersiz adres)
[TX] 01 03 01 53 00 01 75 E7 
[RX] (5 bytes) 01 83 02 C0 F1 
[MODBUS] Exception: 0x02 (Gecersiz adres)
[TX] 01 03 01 54 00 01 C4 26 
[RX] (5 bytes) 01 83 02 C0 F1 
[MODBUS] Exception: 0x02 (Gecersiz adres)
[TX] 01 03 01 55 00 01 95 E6 
[RX] (5 bytes) 01 83 02 C0 F1 
[MODBUS] Exception: 0x02 (Gecersiz adres)
[TX] 01 03 01 56 00 01 65 E6 
[RX] (5 bytes) 01 83 02 C0 F1 
[MODBUS] Exception: 0x02 (Gecersiz adres)
[TX] 01 03 01 57 00 01 34 26 
[RX] (5 bytes) 01 83 02 C0 F1 
[MODBUS] Exception: 0x02 (Gecersiz adres)
[TX] 01 03 01 58 00 01 04 25 
[RX] (5 bytes) 01 83 02 C0 F1 
[MODBUS] Exception: 0x02 (Gecersiz adres)
[TX] 01 03 01 59 00 01 55 E5 
[RX] (5 bytes) 01 83 02 C0 F1 
[MODBUS] Exception: 0x02 (Gecersiz adres)
[TX] 01 03 01 5A 00 01 A5 E5 
[RX] (5 bytes) 01 83 02 C0 F1 
[MODBUS] Exception: 0x02 (Gecersiz adres)
[TX] 01 03 01 5B 00 01 F4 25 
[RX] (5 bytes) 01 83 02 C0 F1 
[MODBUS] Exception: 0x02 (Gecersiz adres)
[TX] 01 03 01 5C 00 01 45 E4 
[RX] (5 bytes) 01 83 02 C0 F1 
[MODBUS] Exception: 0x02 (Gecersiz adres)
[TX] 01 03 01 5D 00 01 14 24 
[RX] (5 bytes) 01 83 02 C0 F1 
[MODBUS] Exception: 0x02 (Gecersiz adres)
[TX] 01 03 01 5E 00 01 E4 24 
[RX] (5 bytes) 01 83 02 C0 F1 
[MODBUS] Exception: 0x02 (Gecersiz adres)
[TX] 01 03 01 5F 00 01 B5 E4 
[RX] (5 bytes) 01 83 02 C0 F1 
[MODBUS] Exception: 0x02 (Gecersiz adres)
[TX] 01 03 01 60 00 01 85 E8 
[RX] (5 bytes) 01 83 02 C0 F1 
[MODBUS] Exception: 0x02 (Gecersiz adres)
[TX] 01 03 01 61 00 01 D4 28 
[RX] (5 bytes) 01 83 02 C0 F1 
[MODBUS] Exception: 0x02 (Gecersiz adres)
[TX] 01 03 01 62 00 01 24 28 
[RX] (5 bytes) 01 83 02 C0 F1 
[MODBUS] Exception: 0x02 (Gecersiz adres)
[TX] 01 03 01 63 00 01 75 E8 
[RX] (5 bytes) 01 83 02 C0 F1 
[MODBUS] Exception: 0x02 (Gecersiz adres)
[TX] 01 03 01 64 00 01 C4 29 
[RX] (5 bytes) 01 83 02 C0 F1 
[MODBUS] Exception: 0x02 (Gecersiz adres)
[TX] 01 03 01 65 00 01 95 E9 
[RX] (5 bytes) 01 83 02 C0 F1 
[MODBUS] Exception: 0x02 (Gecersiz adres)
[TX] 01 03 01 66 00 01 65 E9 
[RX] (5 bytes) 01 83 02 C0 F1 
[MODBUS] Exception: 0x02 (Gecersiz adres)
[TX] 01 03 01 67 00 01 34 29 
[RX] (5 bytes) 01 83 02 C0 F1 
[MODBUS] Exception: 0x02 (Gecersiz adres)
[TX] 01 03 01 68 00 01 04 2A 
[RX] (5 bytes) 01 83 02 C0 F1 
[MODBUS] Exception: 0x02 (Gecersiz adres)
[TX] 01 03 01 69 00 01 55 EA 
[RX] (5 bytes) 01 83 02 C0 F1 
[MODBUS] Exception: 0x02 (Gecersiz adres)
[TX] 01 03 01 6A 00 01 A5 EA 
[RX] (5 bytes) 01 83 02 C0 F1 
[MODBUS] Exception: 0x02 (Gecersiz adres)
[TX] 01 03 01 6B 00 01 F4 2A 
[RX] (5 bytes) 01 83 02 C0 F1 
[MODBUS] Exception: 0x02 (Gecersiz adres)
[TX] 01 03 01 6C 00 01 45 EB 
[RX] (5 bytes) 01 83 02 C0 F1 
[MODBUS] Exception: 0x02 (Gecersiz adres)
[TX] 01 03 01 6D 00 01 14 2B 
[RX] (5 bytes) 01 83 02 C0 F1 
[MODBUS] Exception: 0x02 (Gecersiz adres)
[TX] 01 03 01 6E 00 01 E4 2B 
[RX] (5 bytes) 01 83 02 C0 F1 
[MODBUS] Exception: 0x02 (Gecersiz adres)
[TX] 01 03 01 6F 00 01 B5 EB 
[RX] (5 bytes) 01 83 02 C0 F1 
[MODBUS] Exception: 0x02 (Gecersiz adres)
[TX] 01 03 01 70 00 01 84 2D 
[RX] (5 bytes) 01 83 02 C0 F1 
[MODBUS] Exception: 0x02 (Gecersiz adres)
[TX] 01 03 01 71 00 01 D5 ED 
[RX] (5 bytes) 01 83 02 C0 F1 
[MODBUS] Exception: 0x02 (Gecersiz adres)
[TX] 01 03 01 72 00 01 25 ED 
[RX] (5 bytes) 01 83 02 C0 F1 
[MODBUS] Exception: 0x02 (Gecersiz adres)
[TX] 01 03 01 73 00 01 74 2D 
[RX] (5 bytes) 01 83 02 C0 F1 
[MODBUS] Exception: 0x02 (Gecersiz adres)
[TX] 01 03 01 74 00 01 C5 EC 
[RX] (5 bytes) 01 83 02 C0 F1 
[MODBUS] Exception: 0x02 (Gecersiz adres)
[TX] 01 03 01 75 00 01 94 2C 
[RX] (5 bytes) 01 83 02 C0 F1 
[MODBUS] Exception: 0x02 (Gecersiz adres)
[TX] 01 03 01 76 00 01 64 2C 
[RX] (5 bytes) 01 83 02 C0 F1 
[MODBUS] Exception: 0x02 (Gecersiz adres)
[TX] 01 03 01 77 00 01 35 EC 
[RX] (5 bytes) 01 83 02 C0 F1 
[MODBUS] Exception: 0x02 (Gecersiz adres)
[TX] 01 03 01 78 00 01 05 EF 
[RX] (5 bytes) 01 83 02 C0 F1 
[MODBUS] Exception: 0x02 (Gecersiz adres)
[TX] 01 03 01 79 00 01 54 2F 
[RX] (5 bytes) 01 83 02 C0 F1 
[MODBUS] Exception: 0x02 (Gecersiz adres)
[TX] 01 03 01 7A 00 01 A4 2F 
[RX] (5 bytes) 01 83 02 C0 F1 
[MODBUS] Exception: 0x02 (Gecersiz adres)
[TX] 01 03 01 7B 00 01 F5 EF 
[RX] (5 bytes) 01 83 02 C0 F1 
[MODBUS] Exception: 0x02 (Gecersiz adres)
[TX] 01 03 01 7C 00 01 44 2E 
[RX] (5 bytes) 01 83 02 C0 F1 
[MODBUS] Exception: 0x02 (Gecersiz adres)
[TX] 01 03 01 7D 00 01 15 EE 
[RX] (5 bytes) 01 83 02 C0 F1 
[MODBUS] Exception: 0x02 (Gecersiz adres)
[TX] 01 03 01 7E 00 01 E5 EE 
[RX] (5 bytes) 01 83 02 C0 F1 
[MODBUS] Exception: 0x02 (Gecersiz adres)
[TX] 01 03 01 7F 00 01 B4 2E 
[RX] (5 bytes) 01 83 02 C0 F1 
[MODBUS] Exception: 0x02 (Gecersiz adres)
[TX] 01 03 01 80 00 01 84 1E 
[RX] (5 bytes) 01 83 02 C0 F1 
[MODBUS] Exception: 0x02 (Gecersiz adres)
[TX] 01 03 01 81 00 01 D5 DE 
[RX] (5 bytes) 01 83 02 C0 F1 
[MODBUS] Exception: 0x02 (Gecersiz adres)
[TX] 01 03 01 82 00 01 25 DE 
[RX] (5 bytes) 01 83 02 C0 F1 
[MODBUS] Exception: 0x02 (Gecersiz adres)
[TX] 01 03 01 83 00 01 74 1E 
[RX] (5 bytes) 01 83 02 C0 F1 
[MODBUS] Exception: 0x02 (Gecersiz adres)
[TX] 01 03 01 84 00 01 C5 DF 
[RX] (5 bytes) 01 83 02 C0 F1 
[MODBUS] Exception: 0x02 (Gecersiz adres)
[TX] 01 03 01 85 00 01 94 1F 
[RX] (5 bytes) 01 83 02 C0 F1 
[MODBUS] Exception: 0x02 (Gecersiz adres)
[TX] 01 03 01 86 00 01 64 1F 
[RX] (5 bytes) 01 83 02 C0 F1 
[MODBUS] Exception: 0x02 (Gecersiz adres)
[TX] 01 03 01 87 00 01 35 DF 
[RX] (5 bytes) 01 83 02 C0 F1 
[MODBUS] Exception: 0x02 (Gecersiz adres)
[TX] 01 03 01 88 00 01 05 DC 
[RX] (5 bytes) 01 83 02 C0 F1 
[MODBUS] Exception: 0x02 (Gecersiz adres)
[TX] 01 03 01 89 00 01 54 1C 
[RX] (5 bytes) 01 83 02 C0 F1 
[MODBUS] Exception: 0x02 (Gecersiz adres)
[TX] 01 03 01 8A 00 01 A4 1C 
[RX] (5 bytes) 01 83 02 C0 F1 
[MODBUS] Exception: 0x02 (Gecersiz adres)
[TX] 01 03 01 8B 00 01 F5 DC 
[RX] (5 bytes) 01 83 02 C0 F1 
[MODBUS] Exception: 0x02 (Gecersiz adres)
[TX] 01 03 01 8C 00 01 44 1D 
[RX] (5 bytes) 01 83 02 C0 F1 
[MODBUS] Exception: 0x02 (Gecersiz adres)
[TX] 01 03 01 8D 00 01 15 DD 
[RX] (5 bytes) 01 83 02 C0 F1 
[MODBUS] Exception: 0x02 (Gecersiz adres)
[TX] 01 03 01 8E 00 01 E5 DD 
[RX] (5 bytes) 01 83 02 C0 F1 
[MODBUS] Exception: 0x02 (Gecersiz adres)
[TX] 01 03 01 8F 00 01 B4 1D 
[RX] (5 bytes) 01 83 02 C0 F1 
[MODBUS] Exception: 0x02 (Gecersiz adres)
[TX] 01 03 01 90 00 01 85 DB 
[RX] (5 bytes) 01 83 02 C0 F1 
[MODBUS] Exception: 0x02 (Gecersiz adres)
[TX] 01 03 01 91 00 01 D4 1B 
[RX] (5 bytes) 01 83 02 C0 F1 
[MODBUS] Exception: 0x02 (Gecersiz adres)
[TX] 01 03 01 92 00 01 24 1B 
[RX] (5 bytes) 01 83 02 C0 F1 
[MODBUS] Exception: 0x02 (Gecersiz adres)
[TX] 01 03 01 93 00 01 75 DB 
[RX] (5 bytes) 01 83 02 C0 F1 
[MODBUS] Exception: 0x02 (Gecersiz adres)
[TX] 01 03 01 94 00 01 C4 1A 
[RX] (5 bytes) 01 83 02 C0 F1 
[MODBUS] Exception: 0x02 (Gecersiz adres)
[TX] 01 03 01 95 00 01 95 DA 
[RX] (5 bytes) 01 83 02 C0 F1 
[MODBUS] Exception: 0x02 (Gecersiz adres)
[TX] 01 03 01 96 00 01 65 DA 
[RX] (5 bytes) 01 83 02 C0 F1 
[MODBUS] Exception: 0x02 (Gecersiz adres)
[TX] 01 03 01 97 00 01 34 1A 
[RX] (5 bytes) 01 83 02 C0 F1 
[MODBUS] Exception: 0x02 (Gecersiz adres)
[TX] 01 03 01 98 00 01 04 19 
[RX] (5 bytes) 01 83 02 C0 F1 
[MODBUS] Exception: 0x02 (Gecersiz adres)
[TX] 01 03 01 99 00 01 55 D9 
[RX] (5 bytes) 01 83 02 C0 F1 
[MODBUS] Exception: 0x02 (Gecersiz adres)
[TX] 01 03 01 9A 00 01 A5 D9 
[RX] (5 bytes) 01 83 02 C0 F1 
[MODBUS] Exception: 0x02 (Gecersiz adres)
[TX] 01 03 01 9B 00 01 F4 19 
[RX] (5 bytes) 01 83 02 C0 F1 
[MODBUS] Exception: 0x02 (Gecersiz adres)
[TX] 01 03 01 9C 00 01 45 D8 
[RX] (5 bytes) 01 83 02 C0 F1 
[MODBUS] Exception: 0x02 (Gecersiz adres)
[TX] 01 03 01 9D 00 01 14 18 
[RX] (5 bytes) 01 83 02 C0 F1 
[MODBUS] Exception: 0x02 (Gecersiz adres)
[TX] 01 03 01 9E 00 01 E4 18 
[RX] (5 bytes) 01 83 02 C0 F1 
[MODBUS] Exception: 0x02 (Gecersiz adres)
[TX] 01 03 01 9F 00 01 B5 D8 
[RX] (5 bytes) 01 83 02 C0 F1 
[MODBUS] Exception: 0x02 (Gecersiz adres)
[TX] 01 03 01 A0 00 01 85 D4 
[RX] (5 bytes) 01 83 02 C0 F1 
[MODBUS] Exception: 0x02 (Gecersiz adres)
[TX] 01 03 01 A1 00 01 D4 14 
[RX] (5 bytes) 01 83 02 C0 F1 
[MODBUS] Exception: 0x02 (Gecersiz adres)
[TX] 01 03 01 A2 00 01 24 14 
[RX] (5 bytes) 01 83 02 C0 F1 
[MODBUS] Exception: 0x02 (Gecersiz adres)
[TX] 01 03 01 A3 00 01 75 D4 
[RX] (5 bytes) 01 83 02 C0 F1 
[MODBUS] Exception: 0x02 (Gecersiz adres)
[TX] 01 03 01 A4 00 01 C4 15 
[RX] (5 bytes) 01 83 02 C0 F1 
[MODBUS] Exception: 0x02 (Gecersiz adres)
[TX] 01 03 01 A5 00 01 95 D5 
[RX] (5 bytes) 01 83 02 C0 F1 
[MODBUS] Exception: 0x02 (Gecersiz adres)
[TX] 01 03 01 A6 00 01 65 D5 
[RX] (5 bytes) 01 83 02 C0 F1 
[MODBUS] Exception: 0x02 (Gecersiz adres)
[TX] 01 03 01 A7 00 01 34 15 
[RX] (5 bytes) 01 83 02 C0 F1 
[MODBUS] Exception: 0x02 (Gecersiz adres)
[TX] 01 03 01 A8 00 01 04 16 
[RX] (5 bytes) 01 83 02 C0 F1 
[MODBUS] Exception: 0x02 (Gecersiz adres)
[TX] 01 03 01 A9 00 01 55 D6 
[RX] (5 bytes) 01 83 02 C0 F1 
[MODBUS] Exception: 0x02 (Gecersiz adres)
[TX] 01 03 01 AA 00 01 A5 D6 
[RX] (5 bytes) 01 83 02 C0 F1 
[MODBUS] Exception: 0x02 (Gecersiz adres)
[TX] 01 03 01 AB 00 01 F4 16 
[RX] (5 bytes) 01 83 02 C0 F1 
[MODBUS] Exception: 0x02 (Gecersiz adres)
[TX] 01 03 01 AC 00 01 45 D7 
[RX] (5 bytes) 01 83 02 C0 F1 
[MODBUS] Exception: 0x02 (Gecersiz adres)
[TX] 01 03 01 AD 00 01 14 17 
[RX] (5 bytes) 01 83 02 C0 F1 
[MODBUS] Exception: 0x02 (Gecersiz adres)
[TX] 01 03 01 AE 00 01 E4 17 
[RX] (5 bytes) 01 83 02 C0 F1 
[MODBUS] Exception: 0x02 (Gecersiz adres)
[TX] 01 03 01 AF 00 01 B5 D7 
[RX] (5 bytes) 01 83 02 C0 F1 
[MODBUS] Exception: 0x02 (Gecersiz adres)
[TX] 01 03 01 B0 00 01 84 11 
[RX] (5 bytes) 01 83 02 C0 F1 
[MODBUS] Exception: 0x02 (Gecersiz adres)
[TX] 01 03 01 B1 00 01 D5 D1 
[RX] (5 bytes) 01 83 02 C0 F1 
[MODBUS] Exception: 0x02 (Gecersiz adres)
[TX] 01 03 01 B2 00 01 25 D1 
[RX] (5 bytes) 01 83 02 C0 F1 
[MODBUS] Exception: 0x02 (Gecersiz adres)
[TX] 01 03 01 B3 00 01 74 11 
[RX] (5 bytes) 01 83 02 C0 F1 
[MODBUS] Exception: 0x02 (Gecersiz adres)
[TX] 01 03 01 B4 00 01 C5 D0 
[RX] (5 bytes) 01 83 02 C0 F1 
[MODBUS] Exception: 0x02 (Gecersiz adres)
[TX] 01 03 01 B5 00 01 94 10 
[RX] (5 bytes) 01 83 02 C0 F1 
[MODBUS] Exception: 0x02 (Gecersiz adres)
[TX] 01 03 01 B6 00 01 64 10 
[RX] (5 bytes) 01 83 02 C0 F1 
[MODBUS] Exception: 0x02 (Gecersiz adres)
[TX] 01 03 01 B7 00 01 35 D0 
[RX] (5 bytes) 01 83 02 C0 F1 
[MODBUS] Exception: 0x02 (Gecersiz adres)
[TX] 01 03 01 B8 00 01 05 D3 
[RX] (5 bytes) 01 83 02 C0 F1 
[MODBUS] Exception: 0x02 (Gecersiz adres)
[TX] 01 03 01 B9 00 01 54 13 
[RX] (5 bytes) 01 83 02 C0 F1 
[MODBUS] Exception: 0x02 (Gecersiz adres)
[TX] 01 03 01 BA 00 01 A4 13 
[RX] (5 bytes) 01 83 02 C0 F1 
[MODBUS] Exception: 0x02 (Gecersiz adres)
[TX] 01 03 01 BB 00 01 F5 D3 
[RX] (5 bytes) 01 83 02 C0 F1 
[MODBUS] Exception: 0x02 (Gecersiz adres)
[TX] 01 03 01 BC 00 01 44 12 
[RX] (5 bytes) 01 83 02 C0 F1 
[MODBUS] Exception: 0x02 (Gecersiz adres)
[TX] 01 03 01 BD 00 01 15 D2 
[RX] (5 bytes) 01 83 02 C0 F1 
[MODBUS] Exception: 0x02 (Gecersiz adres)
[TX] 01 03 01 BE 00 01 E5 D2 
[RX] (5 bytes) 01 83 02 C0 F1 
[MODBUS] Exception: 0x02 (Gecersiz adres)
[TX] 01 03 01 BF 00 01 B4 12 
[RX] (5 bytes) 01 83 02 C0 F1 
[MODBUS] Exception: 0x02 (Gecersiz adres)
[TX] 01 03 01 C0 00 01 85 CA 
[RX] (5 bytes) 01 83 02 C0 F1 
[MODBUS] Exception: 0x02 (Gecersiz adres)
[TX] 01 03 01 C1 00 01 D4 0A 
[RX] (5 bytes) 01 83 02 C0 F1 
[MODBUS] Exception: 0x02 (Gecersiz adres)
[TX] 01 03 01 C2 00 01 24 0A 
[RX] (5 bytes) 01 83 02 C0 F1 
[MODBUS] Exception: 0x02 (Gecersiz adres)
[TX] 01 03 01 C3 00 01 75 CA 
[RX] (5 bytes) 01 83 02 C0 F1 
[MODBUS] Exception: 0x02 (Gecersiz adres)
[TX] 01 03 01 C4 00 01 C4 0B 
[RX] (5 bytes) 01 83 02 C0 F1 
[MODBUS] Exception: 0x02 (Gecersiz adres)
[TX] 01 03 01 C5 00 01 95 CB 
[RX] (5 bytes) 01 83 02 C0 F1 
[MODBUS] Exception: 0x02 (Gecersiz adres)
[TX] 01 03 01 C6 00 01 65 CB 
[RX] (5 bytes) 01 83 02 C0 F1 
[MODBUS] Exception: 0x02 (Gecersiz adres)
[TX] 01 03 01 C7 00 01 34 0B 
[RX] (5 bytes) 01 83 02 C0 F1 
[MODBUS] Exception: 0x02 (Gecersiz adres)
[TX] 01 03 01 C8 00 01 04 08 
[RX] (5 bytes) 01 83 02 C0 F1 
[MODBUS] Exception: 0x02 (Gecersiz adres)
[TX] 01 03 01 C9 00 01 55 C8 
[RX] (5 bytes) 01 83 02 C0 F1 
[MODBUS] Exception: 0x02 (Gecersiz adres)
[TX] 01 03 01 CA 00 01 A5 C8 
[RX] (5 bytes) 01 83 02 C0 F1 
[MODBUS] Exception: 0x02 (Gecersiz adres)
[TX] 01 03 01 CB 00 01 F4 08 
[RX] (5 bytes) 01 83 02 C0 F1 
[MODBUS] Exception: 0x02 (Gecersiz adres)
[TX] 01 03 01 CC 00 01 45 C9 
[RX] (5 bytes) 01 83 02 C0 F1 
[MODBUS] Exception: 0x02 (Gecersiz adres)
[TX] 01 03 01 CD 00 01 14 09 
[RX] (5 bytes) 01 83 02 C0 F1 
[MODBUS] Exception: 0x02 (Gecersiz adres)
[TX] 01 03 01 CE 00 01 E4 09 
[RX] (5 bytes) 01 83 02 C0 F1 
[MODBUS] Exception: 0x02 (Gecersiz adres)
[TX] 01 03 01 CF 00 01 B5 C9 
[RX] (5 bytes) 01 83 02 C0 F1 
[MODBUS] Exception: 0x02 (Gecersiz adres)
[TX] 01 03 01 D0 00 01 84 0F 
[RX] (5 bytes) 01 83 02 C0 F1 
[MODBUS] Exception: 0x02 (Gecersiz adres)
[TX] 01 03 01 D1 00 01 D5 CF 
[RX] (5 bytes) 01 83 02 C0 F1 
[MODBUS] Exception: 0x02 (Gecersiz adres)
[TX] 01 03 01 D2 00 01 25 CF 
[RX] (5 bytes) 01 83 02 C0 F1 
[MODBUS] Exception: 0x02 (Gecersiz adres)
[TX] 01 03 01 D3 00 01 74 0F 
[RX] (5 bytes) 01 83 02 C0 F1 
[MODBUS] Exception: 0x02 (Gecersiz adres)
[TX] 01 03 01 D4 00 01 C5 CE 
[RX] (5 bytes) 01 83 02 C0 F1 
[MODBUS] Exception: 0x02 (Gecersiz adres)
[TX] 01 03 01 D5 00 01 94 0E 
[RX] (5 bytes) 01 83 02 C0 F1 
[MODBUS] Exception: 0x02 (Gecersiz adres)
[TX] 01 03 01 D6 00 01 64 0E 
[RX] (5 bytes) 01 83 02 C0 F1 
[MODBUS] Exception: 0x02 (Gecersiz adres)
[TX] 01 03 01 D7 00 01 35 CE 
[RX] (5 bytes) 01 83 02 C0 F1 
[MODBUS] Exception: 0x02 (Gecersiz adres)
[TX] 01 03 01 D8 00 01 05 CD 
[RX] (5 bytes) 01 83 02 C0 F1 
[MODBUS] Exception: 0x02 (Gecersiz adres)
[TX] 01 03 01 D9 00 01 54 0D 
[RX] (5 bytes) 01 83 02 C0 F1 
[MODBUS] Exception: 0x02 (Gecersiz adres)
[TX] 01 03 01 DA 00 01 A4 0D 
[RX] (5 bytes) 01 83 02 C0 F1 
[MODBUS] Exception: 0x02 (Gecersiz adres)
[TX] 01 03 01 DB 00 01 F5 CD 
[RX] (5 bytes) 01 83 02 C0 F1 
[MODBUS] Exception: 0x02 (Gecersiz adres)
[TX] 01 03 01 DC 00 01 44 0C 
[RX] (5 bytes) 01 83 02 C0 F1 
[MODBUS] Exception: 0x02 (Gecersiz adres)
[TX] 01 03 01 DD 00 01 15 CC 
[RX] (5 bytes) 01 83 02 C0 F1 
[MODBUS] Exception: 0x02 (Gecersiz adres)
[TX] 01 03 01 DE 00 01 E5 CC 
[RX] (5 bytes) 01 83 02 C0 F1 
[MODBUS] Exception: 0x02 (Gecersiz adres)
[TX] 01 03 01 DF 00 01 B4 0C 
[RX] (5 bytes) 01 83 02 C0 F1 
[MODBUS] Exception: 0x02 (Gecersiz adres)
[TX] 01 03 01 E0 00 01 84 00 
[RX] (5 bytes) 01 83 02 C0 F1 
[MODBUS] Exception: 0x02 (Gecersiz adres)
[TX] 01 03 01 E1 00 01 D5 C0 
[RX] (5 bytes) 01 83 02 C0 F1 
[MODBUS] Exception: 0x02 (Gecersiz adres)
[TX] 01 03 01 E2 00 01 25 C0 
[RX] (5 bytes) 01 83 02 C0 F1 
[MODBUS] Exception: 0x02 (Gecersiz adres)
[TX] 01 03 01 E3 00 01 74 00 
[RX] (5 bytes) 01 83 02 C0 F1 
[MODBUS] Exception: 0x02 (Gecersiz adres)
[TX] 01 03 01 E4 00 01 C5 C1 
[RX] (5 bytes) 01 83 02 C0 F1 
[MODBUS] Exception: 0x02 (Gecersiz adres)
[TX] 01 03 01 E5 00 01 94 01 
[RX] (5 bytes) 01 83 02 C0 F1 
[MODBUS] Exception: 0x02 (Gecersiz adres)
[TX] 01 03 01 E6 00 01 64 01 
[RX] (5 bytes) 01 83 02 C0 F1 
[MODBUS] Exception: 0x02 (Gecersiz adres)
[TX] 01 03 01 E7 00 01 35 C1 
[RX] (5 bytes) 01 83 02 C0 F1 
[MODBUS] Exception: 0x02 (Gecersiz adres)
[TX] 01 03 01 E8 00 01 05 C2 
[RX] (5 bytes) 01 83 02 C0 F1 
[MODBUS] Exception: 0x02 (Gecersiz adres)
[TX] 01 03 01 E9 00 01 54 02 
[RX] (5 bytes) 01 83 02 C0 F1 
[MODBUS] Exception: 0x02 (Gecersiz adres)
[TX] 01 03 01 EA 00 01 A4 02 
[RX] (5 bytes) 01 83 02 C0 F1 
[MODBUS] Exception: 0x02 (Gecersiz adres)
[TX] 01 03 01 EB 00 01 F5 C2 
[RX] (5 bytes) 01 83 02 C0 F1 
[MODBUS] Exception: 0x02 (Gecersiz adres)
[TX] 01 03 01 EC 00 01 44 03 
[RX] (5 bytes) 01 83 02 C0 F1 
[MODBUS] Exception: 0x02 (Gecersiz adres)
[TX] 01 03 01 ED 00 01 15 C3 
[RX] (5 bytes) 01 83 02 C0 F1 
[MODBUS] Exception: 0x02 (Gecersiz adres)
[TX] 01 03 01 EE 00 01 E5 C3 
[RX] (5 bytes) 01 83 02 C0 F1 
[MODBUS] Exception: 0x02 (Gecersiz adres)
[TX] 01 03 01 EF 00 01 B4 03 
[RX] (5 bytes) 01 83 02 C0 F1 
[MODBUS] Exception: 0x02 (Gecersiz adres)
[TX] 01 03 01 F0 00 01 85 C5 
[RX] (5 bytes) 01 83 02 C0 F1 
[MODBUS] Exception: 0x02 (Gecersiz adres)
[TX] 01 03 01 F1 00 01 D4 05 
[RX] (5 bytes) 01 83 02 C0 F1 
[MODBUS] Exception: 0x02 (Gecersiz adres)
[TX] 01 03 01 F2 00 01 24 05 
[RX] (5 bytes) 01 83 02 C0 F1 
[MODBUS] Exception: 0x02 (Gecersiz adres)
[TX] 01 03 01 F3 00 01 75 C5 
[RX] (5 bytes) 01 83 02 C0 F1 
[MODBUS] Exception: 0x02 (Gecersiz adres)
[TX] 01 03 01 F4 00 01 C4 04 
[RX] (5 bytes) 01 83 02 C0 F1 
[MODBUS] Exception: 0x02 (Gecersiz adres)
[TX] 01 03 01 F5 00 01 95 C4 
[RX] (5 bytes) 01 83 02 C0 F1 
[MODBUS] Exception: 0x02 (Gecersiz adres)
[TX] 01 03 01 F6 00 01 65 C4 
[RX] (5 bytes) 01 83 02 C0 F1 
[MODBUS] Exception: 0x02 (Gecersiz adres)
[TX] 01 03 01 F7 00 01 34 04 
[RX] (5 bytes) 01 83 02 C0 F1 
[MODBUS] Exception: 0x02 (Gecersiz adres)
[TX] 01 03 01 F8 00 01 04 07 
[RX] (5 bytes) 01 83 02 C0 F1 
[MODBUS] Exception: 0x02 (Gecersiz adres)
[TX] 01 03 01 F9 00 01 55 C7 
[RX] (5 bytes) 01 83 02 C0 F1 
[MODBUS] Exception: 0x02 (Gecersiz adres)
[TX] 01 03 01 FA 00 01 A5 C7 
[RX] (5 bytes) 01 83 02 C0 F1 
[MODBUS] Exception: 0x02 (Gecersiz adres)
[TX] 01 03 01 FB 00 01 F4 07 
[RX] (5 bytes) 01 83 02 C0 F1 
[MODBUS] Exception: 0x02 (Gecersiz adres)
[TX] 01 03 01 FC 00 01 45 C6 
[RX] (5 bytes) 01 83 02 C0 F1 
[MODBUS] Exception: 0x02 (Gecersiz adres)
[TX] 01 03 01 FD 00 01 14 06 
[RX] (5 bytes) 01 83 02 C0 F1 
[MODBUS] Exception: 0x02 (Gecersiz adres)
[TX] 01 03 01 FE 00 01 E4 06 
[RX] (5 bytes) 01 83 02 C0 F1 
[MODBUS] Exception: 0x02 (Gecersiz adres)
[TX] 01 03 01 FF 00 01 B5 C6 
[RX] (5 bytes) 01 83 02 C0 F1 
[MODBUS] Exception: 0x02 (Gecersiz adres)
[TX] 01 03 02 00 00 01 85 B2 
[RX] (5 bytes) 01 83 02 C0 F1 
[MODBUS] Exception: 0x02 (Gecersiz adres)
[TX] 01 03 02 01 00 01 D4 72 
[RX] (5 bytes) 01 83 02 C0 F1 
[MODBUS] Exception: 0x02 (Gecersiz adres)
[TX] 01 03 02 02 00 01 24 72 
[RX] (5 bytes) 01 83 02 C0 F1 
[MODBUS] Exception: 0x02 (Gecersiz adres)
[TX] 01 03 02 03 00 01 75 B2 
[RX] (5 bytes) 01 83 02 C0 F1 
[MODBUS] Exception: 0x02 (Gecersiz adres)
[TX] 01 03 02 04 00 01 C4 73 
[RX] (5 bytes) 01 83 02 C0 F1 
[MODBUS] Exception: 0x02 (Gecersiz adres)
[TX] 01 03 02 05 00 01 95 B3 
[RX] (5 bytes) 01 83 02 C0 F1 
[MODBUS] Exception: 0x02 (Gecersiz adres)
[TX] 01 03 02 06 00 01 65 B3 
[RX] (5 bytes) 01 83 02 C0 F1 
[MODBUS] Exception: 0x02 (Gecersiz adres)
[TX] 01 03 02 07 00 01 34 73 
[RX] (5 bytes) 01 83 02 C0 F1 
[MODBUS] Exception: 0x02 (Gecersiz adres)
[TX] 01 03 02 08 00 01 04 70 
[RX] (5 bytes) 01 83 02 C0 F1 
[MODBUS] Exception: 0x02 (Gecersiz adres)
[TX] 01 03 02 09 00 01 55 B0 
[RX] (5 bytes) 01 83 02 C0 F1 
[MODBUS] Exception: 0x02 (Gecersiz adres)
[TX] 01 03 02 0A 00 01 A5 B0 
[RX] (5 bytes) 01 83 02 C0 F1 
[MODBUS] Exception: 0x02 (Gecersiz adres)
[TX] 01 03 02 0B 00 01 F4 70 
[RX] (5 bytes) 01 83 02 C0 F1 
[MODBUS] Exception: 0x02 (Gecersiz adres)
[TX] 01 03 02 0C 00 01 45 B1 
[RX] (5 bytes) 01 83 02 C0 F1 
[MODBUS] Exception: 0x02 (Gecersiz adres)
[TX] 01 03 02 0D 00 01 14 71 
[RX] (5 bytes) 01 83 02 C0 F1 
[MODBUS] Exception: 0x02 (Gecersiz adres)
[TX] 01 03 02 0E 00 01 E4 71 
[RX] (5 bytes) 01 83 02 C0 F1 
[MODBUS] Exception: 0x02 (Gecersiz adres)
[TX] 01 03 02 0F 00 01 B5 B1 
[RX] (5 bytes) 01 83 02 C0 F1 
[MODBUS] Exception: 0x02 (Gecersiz adres)
[TX] 01 03 02 10 00 01 84 77 
[RX] (5 bytes) 01 83 02 C0 F1 
[MODBUS] Exception: 0x02 (Gecersiz adres)
[TX] 01 03 02 11 00 01 D5 B7 
[RX] (5 bytes) 01 83 02 C0 F1 
[MODBUS] Exception: 0x02 (Gecersiz adres)
[TX] 01 03 02 12 00 01 25 B7 
[RX] (5 bytes) 01 83 02 C0 F1 
[MODBUS] Exception: 0x02 (Gecersiz adres)
[TX] 01 03 02 13 00 01 74 77 
[RX] (5 bytes) 01 83 02 C0 F1 
[MODBUS] Exception: 0x02 (Gecersiz adres)
[TX] 01 03 02 14 00 01 C5 B6 
[RX] (5 bytes) 01 83 02 C0 F1 
[MODBUS] Exception: 0x02 (Gecersiz adres)
[TX] 01 03 02 15 00 01 94 76 
[RX] (5 bytes) 01 83 02 C0 F1 
[MODBUS] Exception: 0x02 (Gecersiz adres)
[TX] 01 03 02 16 00 01 64 76 
[RX] (5 bytes) 01 83 02 C0 F1 
[MODBUS] Exception: 0x02 (Gecersiz adres)
[TX] 01 03 02 17 00 01 35 B6 
[RX] (5 bytes) 01 83 02 C0 F1 
[MODBUS] Exception: 0x02 (Gecersiz adres)
[TX] 01 03 02 18 00 01 05 B5 
[RX] (5 bytes) 01 83 02 C0 F1 
[MODBUS] Exception: 0x02 (Gecersiz adres)
[TX] 01 03 02 19 00 01 54 75 
[RX] (5 bytes) 01 83 02 C0 F1 
[MODBUS] Exception: 0x02 (Gecersiz adres)
[TX] 01 03 02 1A 00 01 A4 75 
[RX] (5 bytes) 01 83 02 C0 F1 
[MODBUS] Exception: 0x02 (Gecersiz adres)
[TX] 01 03 02 1B 00 01 F5 B5 
[RX] (5 bytes) 01 83 02 C0 F1 
[MODBUS] Exception: 0x02 (Gecersiz adres)
[TX] 01 03 02 1C 00 01 44 74 
[RX] (5 bytes) 01 83 02 C0 F1 
[MODBUS] Exception: 0x02 (Gecersiz adres)
[TX] 01 03 02 1D 00 01 15 B4 
[RX] (5 bytes) 01 83 02 C0 F1 
[MODBUS] Exception: 0x02 (Gecersiz adres)
[TX] 01 03 02 1E 00 01 E5 B4 
[RX] (5 bytes) 01 83 02 C0 F1 
[MODBUS] Exception: 0x02 (Gecersiz adres)
[TX] 01 03 02 1F 00 01 B4 74 
[RX] (5 bytes) 01 83 02 C0 F1 
[MODBUS] Exception: 0x02 (Gecersiz adres)
[TX] 01 03 02 20 00 01 84 78 
[RX] (5 bytes) 01 83 02 C0 F1 
[MODBUS] Exception: 0x02 (Gecersiz adres)
[TX] 01 03 02 21 00 01 D5 B8 
[RX] (5 bytes) 01 83 02 C0 F1 
[MODBUS] Exception: 0x02 (Gecersiz adres)
[TX] 01 03 02 22 00 01 25 B8 
[RX] (5 bytes) 01 83 02 C0 F1 
[MODBUS] Exception: 0x02 (Gecersiz adres)
[TX] 01 03 02 23 00 01 74 78 
[RX] (5 bytes) 01 83 02 C0 F1 
[MODBUS] Exception: 0x02 (Gecersiz adres)
[TX] 01 03 02 24 00 01 C5 B9 
[RX] (5 bytes) 01 83 02 C0 F1 
[MODBUS] Exception: 0x02 (Gecersiz adres)
[TX] 01 03 02 25 00 01 94 79 
[RX] (5 bytes) 01 83 02 C0 F1 
[MODBUS] Exception: 0x02 (Gecersiz adres)
[TX] 01 03 02 26 00 01 64 79 
[RX] (5 bytes) 01 83 02 C0 F1 
[MODBUS] Exception: 0x02 (Gecersiz adres)
[TX] 01 03 02 27 00 01 35 B9 
[RX] (5 bytes) 01 83 02 C0 F1 
[MODBUS] Exception: 0x02 (Gecersiz adres)
[TX] 01 03 02 28 00 01 05 BA 
[RX] (5 bytes) 01 83 02 C0 F1 
[MODBUS] Exception: 0x02 (Gecersiz adres)
[TX] 01 03 02 29 00 01 54 7A 
[RX] (5 bytes) 01 83 02 C0 F1 
[MODBUS] Exception: 0x02 (Gecersiz adres)
[TX] 01 03 02 2A 00 01 A4 7A 
[RX] (5 bytes) 01 83 02 C0 F1 
[MODBUS] Exception: 0x02 (Gecersiz adres)
[TX] 01 03 02 2B 00 01 F5 BA 
[RX] (5 bytes) 01 83 02 C0 F1 
[MODBUS] Exception: 0x02 (Gecersiz adres)
[TX] 01 03 02 2C 00 01 44 7B 
[RX] (5 bytes) 01 83 02 C0 F1 
[MODBUS] Exception: 0x02 (Gecersiz adres)
[TX] 01 03 02 2D 00 01 15 BB 
[RX] (5 bytes) 01 83 02 C0 F1 
[MODBUS] Exception: 0x02 (Gecersiz adres)
[TX] 01 03 02 2E 00 01 E5 BB 
[RX] (5 bytes) 01 83 02 C0 F1 
[MODBUS] Exception: 0x02 (Gecersiz adres)
[TX] 01 03 02 2F 00 01 B4 7B 
[RX] (5 bytes) 01 83 02 C0 F1 
[MODBUS] Exception: 0x02 (Gecersiz adres)
[TX] 01 03 02 30 00 01 85 BD 
[RX] (5 bytes) 01 83 02 C0 F1 
[MODBUS] Exception: 0x02 (Gecersiz adres)
[TX] 01 03 02 31 00 01 D4 7D 
[RX] (5 bytes) 01 83 02 C0 F1 
[MODBUS] Exception: 0x02 (Gecersiz adres)
[TX] 01 03 02 32 00 01 24 7D 
[RX] (5 bytes) 01 83 02 C0 F1 
[MODBUS] Exception: 0x02 (Gecersiz adres)
[TX] 01 03 02 33 00 01 75 BD 
[RX] (5 bytes) 01 83 02 C0 F1 
[MODBUS] Exception: 0x02 (Gecersiz adres)
[TX] 01 03 02 34 00 01 C4 7C 
[RX] (5 bytes) 01 83 02 C0 F1 
[MODBUS] Exception: 0x02 (Gecersiz adres)
[TX] 01 03 02 35 00 01 95 BC 
[RX] (5 bytes) 01 83 02 C0 F1 
[MODBUS] Exception: 0x02 (Gecersiz adres)
[TX] 01 03 02 36 00 01 65 BC 
[RX] (5 bytes) 01 83 02 C0 F1 
[MODBUS] Exception: 0x02 (Gecersiz adres)
[TX] 01 03 02 37 00 01 34 7C 
[RX] (5 bytes) 01 83 02 C0 F1 
[MODBUS] Exception: 0x02 (Gecersiz adres)
[TX] 01 03 02 38 00 01 04 7F 
[RX] (5 bytes) 01 83 02 C0 F1 
[MODBUS] Exception: 0x02 (Gecersiz adres)
[TX] 01 03 02 39 00 01 55 BF 
[RX] (5 bytes) 01 83 02 C0 F1 
[MODBUS] Exception: 0x02 (Gecersiz adres)
[TX] 01 03 02 3A 00 01 A5 BF 
[RX] (5 bytes) 01 83 02 C0 F1 
[MODBUS] Exception: 0x02 (Gecersiz adres)
[TX] 01 03 02 3B 00 01 F4 7F 
[RX] (5 bytes) 01 83 02 C0 F1 
[MODBUS] Exception: 0x02 (Gecersiz adres)
[TX] 01 03 02 3C 00 01 45 BE 
[RX] (5 bytes) 01 83 02 C0 F1 
[MODBUS] Exception: 0x02 (Gecersiz adres)
[TX] 01 03 02 3D 00 01 14 7E 
[RX] (5 bytes) 01 83 02 C0 F1 
[MODBUS] Exception: 0x02 (Gecersiz adres)
[TX] 01 03 02 3E 00 01 E4 7E 
[RX] (5 bytes) 01 83 02 C0 F1 
[MODBUS] Exception: 0x02 (Gecersiz adres)
[TX] 01 03 02 3F 00 01 B5 BE 
[RX] (5 bytes) 01 83 02 C0 F1 
[MODBUS] Exception: 0x02 (Gecersiz adres)
[TX] 01 03 02 40 00 01 84 66 
[RX] (5 bytes) 01 83 02 C0 F1 
[MODBUS] Exception: 0x02 (Gecersiz adres)
[TX] 01 03 02 41 00 01 D5 A6 
[RX] (5 bytes) 01 83 02 C0 F1 
[MODBUS] Exception: 0x02 (Gecersiz adres)
[TX] 01 03 02 42 00 01 25 A6 
[RX] (5 bytes) 01 83 02 C0 F1 
[MODBUS] Exception: 0x02 (Gecersiz adres)
[TX] 01 03 02 43 00 01 74 66 
[RX] (5 bytes) 01 83 02 C0 F1 
[MODBUS] Exception: 0x02 (Gecersiz adres)
[TX] 01 03 02 44 00 01 C5 A7 
[RX] (5 bytes) 01 83 02 C0 F1 
[MODBUS] Exception: 0x02 (Gecersiz adres)
[TX] 01 03 02 45 00 01 94 67 
[RX] (5 bytes) 01 83 02 C0 F1 
[MODBUS] Exception: 0x02 (Gecersiz adres)
[TX] 01 03 02 46 00 01 64 67 
[RX] (5 bytes) 01 83 02 C0 F1 
[MODBUS] Exception: 0x02 (Gecersiz adres)
[TX] 01 03 02 47 00 01 35 A7 
[RX] (5 bytes) 01 83 02 C0 F1 
[MODBUS] Exception: 0x02 (Gecersiz adres)
[TX] 01 03 02 48 00 01 05 A4 
[RX] (5 bytes) 01 83 02 C0 F1 
[MODBUS] Exception: 0x02 (Gecersiz adres)
[TX] 01 03 02 49 00 01 54 64 
[RX] (5 bytes) 01 83 02 C0 F1 
[MODBUS] Exception: 0x02 (Gecersiz adres)
[TX] 01 03 02 4A 00 01 A4 64 
[RX] (5 bytes) 01 83 02 C0 F1 
[MODBUS] Exception: 0x02 (Gecersiz adres)
[TX] 01 03 02 4B 00 01 F5 A4 
[RX] (5 bytes) 01 83 02 C0 F1 
[MODBUS] Exception: 0x02 (Gecersiz adres)
[TX] 01 03 02 4C 00 01 44 65 
[RX] (5 bytes) 01 83 02 C0 F1 
[MODBUS] Exception: 0x02 (Gecersiz adres)
[TX] 01 03 02 4D 00 01 15 A5 
[RX] (5 bytes) 01 83 02 C0 F1 
[MODBUS] Exception: 0x02 (Gecersiz adres)
[TX] 01 03 02 4E 00 01 E5 A5 
[RX] (5 bytes) 01 83 02 C0 F1 
[MODBUS] Exception: 0x02 (Gecersiz adres)
[TX] 01 03 02 4F 00 01 B4 65 
[RX] (5 bytes) 01 83 02 C0 F1 
[MODBUS] Exception: 0x02 (Gecersiz adres)
[TX] 01 03 02 50 00 01 85 A3 
[RX] (5 bytes) 01 83 02 C0 F1 
[MODBUS] Exception: 0x02 (Gecersiz adres)
[TX] 01 03 02 51 00 01 D4 63 
[RX] (5 bytes) 01 83 02 C0 F1 
[MODBUS] Exception: 0x02 (Gecersiz adres)
[TX] 01 03 02 52 00 01 24 63 
[RX] (5 bytes) 01 83 02 C0 F1 
[MODBUS] Exception: 0x02 (Gecersiz adres)
[TX] 01 03 02 53 00 01 75 A3 
[RX] (5 bytes) 01 83 02 C0 F1 
[MODBUS] Exception: 0x02 (Gecersiz adres)
[TX] 01 03 02 54 00 01 C4 62 
[RX] (5 bytes) 01 83 02 C0 F1 
[MODBUS] Exception: 0x02 (Gecersiz adres)
[TX] 01 03 02 55 00 01 95 A2 
[RX] (5 bytes) 01 83 02 C0 F1 
[MODBUS] Exception: 0x02 (Gecersiz adres)
[TX] 01 03 02 56 00 01 65 A2 
[RX] (5 bytes) 01 83 02 C0 F1 
[MODBUS] Exception: 0x02 (Gecersiz adres)
[TX] 01 03 02 57 00 01 34 62 
[RX] (5 bytes) 01 83 02 C0 F1 
[MODBUS] Exception: 0x02 (Gecersiz adres)
[TX] 01 03 02 58 00 01 04 61 
[RX] (5 bytes) 01 83 02 C0 F1 
[MODBUS] Exception: 0x02 (Gecersiz adres)
[TX] 01 03 02 59 00 01 55 A1 
[RX] (5 bytes) 01 83 02 C0 F1 
[MODBUS] Exception: 0x02 (Gecersiz adres)
[TX] 01 03 02 5A 00 01 A5 A1 
[RX] (5 bytes) 01 83 02 C0 F1 
[MODBUS] Exception: 0x02 (Gecersiz adres)
[TX] 01 03 02 5B 00 01 F4 61 
[RX] (5 bytes) 01 83 02 C0 F1 
[MODBUS] Exception: 0x02 (Gecersiz adres)
[TX] 01 03 02 5C 00 01 45 A0 
[RX] (5 bytes) 01 83 02 C0 F1 
[MODBUS] Exception: 0x02 (Gecersiz adres)
[TX] 01 03 02 5D 00 01 14 60 
[RX] (5 bytes) 01 83 02 C0 F1 
[MODBUS] Exception: 0x02 (Gecersiz adres)
[TX] 01 03 02 5E 00 01 E4 60 
[RX] (5 bytes) 01 83 02 C0 F1 
[MODBUS] Exception: 0x02 (Gecersiz adres)
[TX] 01 03 02 5F 00 01 B5 A0 
[RX] (5 bytes) 01 83 02 C0 F1 
[MODBUS] Exception: 0x02 (Gecersiz adres)
[TX] 01 03 02 60 00 01 85 AC 
[RX] (5 bytes) 01 83 02 C0 F1 
[MODBUS] Exception: 0x02 (Gecersiz adres)
[TX] 01 03 02 61 00 01 D4 6C 
[RX] (5 bytes) 01 83 02 C0 F1 
[MODBUS] Exception: 0x02 (Gecersiz adres)
[TX] 01 03 02 62 00 01 24 6C 
[RX] (5 bytes) 01 83 02 C0 F1 
[MODBUS] Exception: 0x02 (Gecersiz adres)
[TX] 01 03 02 63 00 01 75 AC 
[RX] (5 bytes) 01 83 02 C0 F1 
[MODBUS] Exception: 0x02 (Gecersiz adres)
[TX] 01 03 02 64 00 01 C4 6D 
[RX] (5 bytes) 01 83 02 C0 F1 
[MODBUS] Exception: 0x02 (Gecersiz adres)
[TX] 01 03 02 65 00 01 95 AD 
[RX] (5 bytes) 01 83 02 C0 F1 
[MODBUS] Exception: 0x02 (Gecersiz adres)
[TX] 01 03 02 66 00 01 65 AD 
[RX] (5 bytes) 01 83 02 C0 F1 
[MODBUS] Exception: 0x02 (Gecersiz adres)
[TX] 01 03 02 67 00 01 34 6D 
[RX] (5 bytes) 01 83 02 C0 F1 
[MODBUS] Exception: 0x02 (Gecersiz adres)
[TX] 01 03 02 68 00 01 04 6E 
[RX] (5 bytes) 01 83 02 C0 F1 
[MODBUS] Exception: 0x02 (Gecersiz adres)
[TX] 01 03 02 69 00 01 55 AE 
[RX] (5 bytes) 01 83 02 C0 F1 
[MODBUS] Exception: 0x02 (Gecersiz adres)
[TX] 01 03 02 6A 00 01 A5 AE 
[RX] (5 bytes) 01 83 02 C0 F1 
[MODBUS] Exception: 0x02 (Gecersiz adres)
[TX] 01 03 02 6B 00 01 F4 6E 
[RX] (5 bytes) 01 83 02 C0 F1 
[MODBUS] Exception: 0x02 (Gecersiz adres)
[TX] 01 03 02 6C 00 01 45 AF 
[RX] (5 bytes) 01 83 02 C0 F1 
[MODBUS] Exception: 0x02 (Gecersiz adres)
[TX] 01 03 02 6D 00 01 14 6F 
[RX] (5 bytes) 01 83 02 C0 F1 
[MODBUS] Exception: 0x02 (Gecersiz adres)
[TX] 01 03 02 6E 00 01 E4 6F 
[RX] (5 bytes) 01 83 02 C0 F1 
[MODBUS] Exception: 0x02 (Gecersiz adres)
[TX] 01 03 02 6F 00 01 B5 AF 
[RX] (5 bytes) 01 83 02 C0 F1 
[MODBUS] Exception: 0x02 (Gecersiz adres)
[TX] 01 03 02 70 00 01 84 69 
[RX] (5 bytes) 01 83 02 C0 F1 
[MODBUS] Exception: 0x02 (Gecersiz adres)
[TX] 01 03 02 71 00 01 D5 A9 
[RX] (5 bytes) 01 83 02 C0 F1 
[MODBUS] Exception: 0x02 (Gecersiz adres)
[TX] 01 03 02 72 00 01 25 A9 
[RX] (5 bytes) 01 83 02 C0 F1 
[MODBUS] Exception: 0x02 (Gecersiz adres)
[TX] 01 03 02 73 00 01 74 69 
[RX] (5 bytes) 01 83 02 C0 F1 
[MODBUS] Exception: 0x02 (Gecersiz adres)
[TX] 01 03 02 74 00 01 C5 A8 
[RX] (5 bytes) 01 83 02 C0 F1 
[MODBUS] Exception: 0x02 (Gecersiz adres)
[TX] 01 03 02 75 00 01 94 68 
[RX] (5 bytes) 01 83 02 C0 F1 
[MODBUS] Exception: 0x02 (Gecersiz adres)
[TX] 01 03 02 76 00 01 64 68 
[RX] (5 bytes) 01 83 02 C0 F1 
[MODBUS] Exception: 0x02 (Gecersiz adres)
[TX] 01 03 02 77 00 01 35 A8 
[RX] (5 bytes) 01 83 02 C0 F1 
[MODBUS] Exception: 0x02 (Gecersiz adres)
[TX] 01 03 02 78 00 01 05 AB 
[RX] (5 bytes) 01 83 02 C0 F1 
[MODBUS] Exception: 0x02 (Gecersiz adres)
[TX] 01 03 02 79 00 01 54 6B 
[RX] (5 bytes) 01 83 02 C0 F1 
[MODBUS] Exception: 0x02 (Gecersiz adres)
[TX] 01 03 02 7A 00 01 A4 6B 
[RX] (5 bytes) 01 83 02 C0 F1 
[MODBUS] Exception: 0x02 (Gecersiz adres)
[TX] 01 03 02 7B 00 01 F5 AB 
[RX] (5 bytes) 01 83 02 C0 F1 
[MODBUS] Exception: 0x02 (Gecersiz adres)
[TX] 01 03 02 7C 00 01 44 6A 
[RX] (5 bytes) 01 83 02 C0 F1 
[MODBUS] Exception: 0x02 (Gecersiz adres)
[TX] 01 03 02 7D 00 01 15 AA 
[RX] (5 bytes) 01 83 02 C0 F1 
[MODBUS] Exception: 0x02 (Gecersiz adres)
[TX] 01 03 02 7E 00 01 E5 AA 
[RX] (5 bytes) 01 83 02 C0 F1 
[MODBUS] Exception: 0x02 (Gecersiz adres)
[TX] 01 03 02 7F 00 01 B4 6A 
[RX] (5 bytes) 01 83 02 C0 F1 
[MODBUS] Exception: 0x02 (Gecersiz adres)
[TX] 01 03 02 80 00 01 84 5A 
[RX] (5 bytes) 01 83 02 C0 F1 
[MODBUS] Exception: 0x02 (Gecersiz adres)
[TX] 01 03 02 81 00 01 D5 9A 
[RX] (5 bytes) 01 83 02 C0 F1 
[MODBUS] Exception: 0x02 (Gecersiz adres)
[TX] 01 03 02 82 00 01 25 9A 
[RX] (5 bytes) 01 83 02 C0 F1 
[MODBUS] Exception: 0x02 (Gecersiz adres)
[TX] 01 03 02 83 00 01 74 5A 
[RX] (5 bytes) 01 83 02 C0 F1 
[MODBUS] Exception: 0x02 (Gecersiz adres)
[TX] 01 03 02 84 00 01 C5 9B 
[RX] (5 bytes) 01 83 02 C0 F1 
[MODBUS] Exception: 0x02 (Gecersiz adres)
[TX] 01 03 02 85 00 01 94 5B 
[RX] (5 bytes) 01 83 02 C0 F1 
[MODBUS] Exception: 0x02 (Gecersiz adres)
[TX] 01 03 02 86 00 01 64 5B 
[RX] (5 bytes) 01 83 02 C0 F1 
[MODBUS] Exception: 0x02 (Gecersiz adres)
[TX] 01 03 02 87 00 01 35 9B 
[RX] (5 bytes) 01 83 02 C0 F1 
[MODBUS] Exception: 0x02 (Gecersiz adres)
[TX] 01 03 02 88 00 01 05 98 
[RX] (5 bytes) 01 83 02 C0 F1 
[MODBUS] Exception: 0x02 (Gecersiz adres)
[TX] 01 03 02 89 00 01 54 58 
[RX] (5 bytes) 01 83 02 C0 F1 
[MODBUS] Exception: 0x02 (Gecersiz adres)
[TX] 01 03 02 8A 00 01 A4 58 
[RX] (5 bytes) 01 83 02 C0 F1 
[MODBUS] Exception: 0x02 (Gecersiz adres)
[TX] 01 03 02 8B 00 01 F5 98 
[RX] (5 bytes) 01 83 02 C0 F1 
[MODBUS] Exception: 0x02 (Gecersiz adres)
[TX] 01 03 02 8C 00 01 44 59 
[RX] (5 bytes) 01 83 02 C0 F1 
[MODBUS] Exception: 0x02 (Gecersiz adres)
[TX] 01 03 02 8D 00 01 15 99 
[RX] (5 bytes) 01 83 02 C0 F1 
[MODBUS] Exception: 0x02 (Gecersiz adres)
[TX] 01 03 02 8E 00 01 E5 99 
[RX] (5 bytes) 01 83 02 C0 F1 
[MODBUS] Exception: 0x02 (Gecersiz adres)
[TX] 01 03 02 8F 00 01 B4 59 
[RX] (5 bytes) 01 83 02 C0 F1 
[MODBUS] Exception: 0x02 (Gecersiz adres)
[TX] 01 03 02 90 00 01 85 9F 
[RX] (5 bytes) 01 83 02 C0 F1 
[MODBUS] Exception: 0x02 (Gecersiz adres)
[TX] 01 03 02 91 00 01 D4 5F 
[RX] (5 bytes) 01 83 02 C0 F1 
[MODBUS] Exception: 0x02 (Gecersiz adres)
[TX] 01 03 02 92 00 01 24 5F 
[RX] (5 bytes) 01 83 02 C0 F1 
[MODBUS] Exception: 0x02 (Gecersiz adres)
[TX] 01 03 02 93 00 01 75 9F 
[RX] (5 bytes) 01 83 02 C0 F1 
[MODBUS] Exception: 0x02 (Gecersiz adres)
[TX] 01 03 02 94 00 01 C4 5E 
[RX] (5 bytes) 01 83 02 C0 F1 
[MODBUS] Exception: 0x02 (Gecersiz adres)
[TX] 01 03 02 95 00 01 95 9E 
[RX] (5 bytes) 01 83 02 C0 F1 
[MODBUS] Exception: 0x02 (Gecersiz adres)
[TX] 01 03 02 96 00 01 65 9E 
[RX] (5 bytes) 01 83 02 C0 F1 
[MODBUS] Exception: 0x02 (Gecersiz adres)
[TX] 01 03 02 97 00 01 34 5E 
[RX] (5 bytes) 01 83 02 C0 F1 
[MODBUS] Exception: 0x02 (Gecersiz adres)
[TX] 01 03 02 98 00 01 04 5D 
[RX] (5 bytes) 01 83 02 C0 F1 
[MODBUS] Exception: 0x02 (Gecersiz adres)
[TX] 01 03 02 99 00 01 55 9D 
[RX] (5 bytes) 01 83 02 C0 F1 
[MODBUS] Exception: 0x02 (Gecersiz adres)
[TX] 01 03 02 9A 00 01 A5 9D 
[RX] (5 bytes) 01 83 02 C0 F1 
[MODBUS] Exception: 0x02 (Gecersiz adres)
[TX] 01 03 02 9B 00 01 F4 5D 
[RX] (5 bytes) 01 83 02 C0 F1 
[MODBUS] Exception: 0x02 (Gecersiz adres)
[TX] 01 03 02 9C 00 01 45 9C 
[RX] (5 bytes) 01 83 02 C0 F1 
[MODBUS] Exception: 0x02 (Gecersiz adres)
[TX] 01 03 02 9D 00 01 14 5C 
[RX] (5 bytes) 01 83 02 C0 F1 
[MODBUS] Exception: 0x02 (Gecersiz adres)
[TX] 01 03 02 9E 00 01 E4 5C 
[RX] (5 bytes) 01 83 02 C0 F1 
[MODBUS] Exception: 0x02 (Gecersiz adres)
[TX] 01 03 02 9F 00 01 B5 9C 
[RX] (5 bytes) 01 83 02 C0 F1 
[MODBUS] Exception: 0x02 (Gecersiz adres)
[TX] 01 03 02 A0 00 01 85 90 
[RX] (5 bytes) 01 83 02 C0 F1 
[MODBUS] Exception: 0x02 (Gecersiz adres)
[TX] 01 03 02 A1 00 01 D4 50 
[RX] (5 bytes) 01 83 02 C0 F1 
[MODBUS] Exception: 0x02 (Gecersiz adres)
[TX] 01 03 02 A2 00 01 24 50 
[RX] (5 bytes) 01 83 02 C0 F1 
[MODBUS] Exception: 0x02 (Gecersiz adres)
[TX] 01 03 02 A3 00 01 75 90 
[RX] (5 bytes) 01 83 02 C0 F1 
[MODBUS] Exception: 0x02 (Gecersiz adres)
[TX] 01 03 02 A4 00 01 C4 51 
[RX] (5 bytes) 01 83 02 C0 F1 
[MODBUS] Exception: 0x02 (Gecersiz adres)
[TX] 01 03 02 A5 00 01 95 91 
[RX] (5 bytes) 01 83 02 C0 F1 
[MODBUS] Exception: 0x02 (Gecersiz adres)
[TX] 01 03 02 A6 00 01 65 91 
[RX] (5 bytes) 01 83 02 C0 F1 
[MODBUS] Exception: 0x02 (Gecersiz adres)
[TX] 01 03 02 A7 00 01 34 51 
[RX] (5 bytes) 01 83 02 C0 F1 
[MODBUS] Exception: 0x02 (Gecersiz adres)
[TX] 01 03 02 A8 00 01 04 52 
[RX] (5 bytes) 01 83 02 C0 F1 
[MODBUS] Exception: 0x02 (Gecersiz adres)
[TX] 01 03 02 A9 00 01 55 92 
[RX] (5 bytes) 01 83 02 C0 F1 
[MODBUS] Exception: 0x02 (Gecersiz adres)
[TX] 01 03 02 AA 00 01 A5 92 
[RX] (5 bytes) 01 83 02 C0 F1 
[MODBUS] Exception: 0x02 (Gecersiz adres)
[TX] 01 03 02 AB 00 01 F4 52 
[RX] (5 bytes) 01 83 02 C0 F1 
[MODBUS] Exception: 0x02 (Gecersiz adres)
[TX] 01 03 02 AC 00 01 45 93 
[RX] (5 bytes) 01 83 02 C0 F1 
[MODBUS] Exception: 0x02 (Gecersiz adres)
[TX] 01 03 02 AD 00 01 14 53 
[RX] (5 bytes) 01 83 02 C0 F1 
[MODBUS] Exception: 0x02 (Gecersiz adres)
[TX] 01 03 02 AE 00 01 E4 53 
[RX] (5 bytes) 01 83 02 C0 F1 
[MODBUS] Exception: 0x02 (Gecersiz adres)
[TX] 01 03 02 AF 00 01 B5 93 
[RX] (5 bytes) 01 83 02 C0 F1 
[MODBUS] Exception: 0x02 (Gecersiz adres)
[TX] 01 03 02 B0 00 01 84 55 
[RX] (5 bytes) 01 83 02 C0 F1 
[MODBUS] Exception: 0x02 (Gecersiz adres)
[TX] 01 03 02 B1 00 01 D5 95 
[RX] (5 bytes) 01 83 02 C0 F1 
[MODBUS] Exception: 0x02 (Gecersiz adres)
[TX] 01 03 02 B2 00 01 25 95 
[RX] (5 bytes) 01 83 02 C0 F1 
[MODBUS] Exception: 0x02 (Gecersiz adres)
[TX] 01 03 02 B3 00 01 74 55 
[RX] (5 bytes) 01 83 02 C0 F1 
[MODBUS] Exception: 0x02 (Gecersiz adres)
[TX] 01 03 02 B4 00 01 C5 94 
[RX] (5 bytes) 01 83 02 C0 F1 
[MODBUS] Exception: 0x02 (Gecersiz adres)
[TX] 01 03 02 B5 00 01 94 54 
[RX] (5 bytes) 01 83 02 C0 F1 
[MODBUS] Exception: 0x02 (Gecersiz adres)
[TX] 01 03 02 B6 00 01 64 54 
[RX] (5 bytes) 01 83 02 C0 F1 
[MODBUS] Exception: 0x02 (Gecersiz adres)
[TX] 01 03 02 B7 00 01 35 94 
[RX] (5 bytes) 01 83 02 C0 F1 
[MODBUS] Exception: 0x02 (Gecersiz adres)
[TX] 01 03 02 B8 00 01 05 97 
[RX] (5 bytes) 01 83 02 C0 F1 
[MODBUS] Exception: 0x02 (Gecersiz adres)
[TX] 01 03 02 B9 00 01 54 57 
[RX] (5 bytes) 01 83 02 C0 F1 
[MODBUS] Exception: 0x02 (Gecersiz adres)
[TX] 01 03 02 BA 00 01 A4 57 
[RX] (5 bytes) 01 83 02 C0 F1 
[MODBUS] Exception: 0x02 (Gecersiz adres)
[TX] 01 03 02 BB 00 01 F5 97 
[RX] (5 bytes) 01 83 02 C0 F1 
[MODBUS] Exception: 0x02 (Gecersiz adres)
[TX] 01 03 02 BC 00 01 44 56 
[RX] (5 bytes) 01 83 02 C0 F1 
[MODBUS] Exception: 0x02 (Gecersiz adres)
[TX] 01 03 02 BD 00 01 15 96 
[RX] (5 bytes) 01 83 02 C0 F1 
[MODBUS] Exception: 0x02 (Gecersiz adres)
[TX] 01 03 02 BE 00 01 E5 96 
[RX] (5 bytes) 01 83 02 C0 F1 
[MODBUS] Exception: 0x02 (Gecersiz adres)
[TX] 01 03 02 BF 00 01 B4 56 
[RX] (5 bytes) 01 83 02 C0 F1 
[MODBUS] Exception: 0x02 (Gecersiz adres)
[TX] 01 03 02 C0 00 01 85 8E 
[RX] (5 bytes) 01 83 02 C0 F1 
[MODBUS] Exception: 0x02 (Gecersiz adres)
[TX] 01 03 02 C1 00 01 D4 4E 
[RX] (5 bytes) 01 83 02 C0 F1 
[MODBUS] Exception: 0x02 (Gecersiz adres)
[TX] 01 03 02 C2 00 01 24 4E 
[RX] (5 bytes) 01 83 02 C0 F1 
[MODBUS] Exception: 0x02 (Gecersiz adres)
[TX] 01 03 02 C3 00 01 75 8E 
[RX] (5 bytes) 01 83 02 C0 F1 
[MODBUS] Exception: 0x02 (Gecersiz adres)
[TX] 01 03 02 C4 00 01 C4 4F 
[RX] (5 bytes) 01 83 02 C0 F1 
[MODBUS] Exception: 0x02 (Gecersiz adres)
[TX] 01 03 02 C5 00 01 95 8F 
[RX] (5 bytes) 01 83 02 C0 F1 
[MODBUS] Exception: 0x02 (Gecersiz adres)
[TX] 01 03 02 C6 00 01 65 8F 
[RX] (5 bytes) 01 83 02 C0 F1 
[MODBUS] Exception: 0x02 (Gecersiz adres)
[TX] 01 03 02 C7 00 01 34 4F 
[RX] (5 bytes) 01 83 02 C0 F1 
[MODBUS] Exception: 0x02 (Gecersiz adres)
[TX] 01 03 02 C8 00 01 04 4C 
[RX] (5 bytes) 01 83 02 C0 F1 
[MODBUS] Exception: 0x02 (Gecersiz adres)
[TX] 01 03 02 C9 00 01 55 8C 
[RX] (5 bytes) 01 83 02 C0 F1 
[MODBUS] Exception: 0x02 (Gecersiz adres)
[TX] 01 03 02 CA 00 01 A5 8C 
[RX] (5 bytes) 01 83 02 C0 F1 
[MODBUS] Exception: 0x02 (Gecersiz adres)
[TX] 01 03 02 CB 00 01 F4 4C 
[RX] (5 bytes) 01 83 02 C0 F1 
[MODBUS] Exception: 0x02 (Gecersiz adres)
[TX] 01 03 02 CC 00 01 45 8D 
[RX] (5 bytes) 01 83 02 C0 F1 
[MODBUS] Exception: 0x02 (Gecersiz adres)
[TX] 01 03 02 CD 00 01 14 4D 
[RX] (5 bytes) 01 83 02 C0 F1 
[MODBUS] Exception: 0x02 (Gecersiz adres)
[TX] 01 03 02 CE 00 01 E4 4D 
[RX] (5 bytes) 01 83 02 C0 F1 
[MODBUS] Exception: 0x02 (Gecersiz adres)
[TX] 01 03 02 CF 00 01 B5 8D 
[RX] (5 bytes) 01 83 02 C0 F1 
[MODBUS] Exception: 0x02 (Gecersiz adres)
[TX] 01 03 02 D0 00 01 84 4B 
[RX] (5 bytes) 01 83 02 C0 F1 
[MODBUS] Exception: 0x02 (Gecersiz adres)
[TX] 01 03 02 D1 00 01 D5 8B 
[RX] (5 bytes) 01 83 02 C0 F1 
[MODBUS] Exception: 0x02 (Gecersiz adres)
[TX] 01 03 02 D2 00 01 25 8B 
[RX] (5 bytes) 01 83 02 C0 F1 
[MODBUS] Exception: 0x02 (Gecersiz adres)
[TX] 01 03 02 D3 00 01 74 4B 
[RX] (5 bytes) 01 83 02 C0 F1 
[MODBUS] Exception: 0x02 (Gecersiz adres)
[TX] 01 03 02 D4 00 01 C5 8A 
[RX] (5 bytes) 01 83 02 C0 F1 
[MODBUS] Exception: 0x02 (Gecersiz adres)
[TX] 01 03 02 D5 00 01 94 4A 
[RX] (5 bytes) 01 83 02 C0 F1 
[MODBUS] Exception: 0x02 (Gecersiz adres)
[TX] 01 03 02 D6 00 01 64 4A 
[RX] (5 bytes) 01 83 02 C0 F1 
[MODBUS] Exception: 0x02 (Gecersiz adres)
[TX] 01 03 02 D7 00 01 35 8A 
[RX] (5 bytes) 01 83 02 C0 F1 
[MODBUS] Exception: 0x02 (Gecersiz adres)
[TX] 01 03 02 D8 00 01 05 89 
[RX] (5 bytes) 01 83 02 C0 F1 
[MODBUS] Exception: 0x02 (Gecersiz adres)
[TX] 01 03 02 D9 00 01 54 49 
[RX] (5 bytes) 01 83 02 C0 F1 
[MODBUS] Exception: 0x02 (Gecersiz adres)
[TX] 01 03 02 DA 00 01 A4 49 
[RX] (5 bytes) 01 83 02 C0 F1 
[MODBUS] Exception: 0x02 (Gecersiz adres)
[TX] 01 03 02 DB 00 01 F5 89 
[RX] (5 bytes) 01 83 02 C0 F1 
[MODBUS] Exception: 0x02 (Gecersiz adres)
[TX] 01 03 02 DC 00 01 44 48 
[RX] (5 bytes) 01 83 02 C0 F1 
[MODBUS] Exception: 0x02 (Gecersiz adres)
[TX] 01 03 02 DD 00 01 15 88 
[RX] (5 bytes) 01 83 02 C0 F1 
[MODBUS] Exception: 0x02 (Gecersiz adres)
[TX] 01 03 02 DE 00 01 E5 88 
[RX] (5 bytes) 01 83 02 C0 F1 
[MODBUS] Exception: 0x02 (Gecersiz adres)
[TX] 01 03 02 DF 00 01 B4 48 
[RX] (5 bytes) 01 83 02 C0 F1 
[MODBUS] Exception: 0x02 (Gecersiz adres)
[TX] 01 03 02 E0 00 01 84 44 
[RX] (5 bytes) 01 83 02 C0 F1 
[MODBUS] Exception: 0x02 (Gecersiz adres)
[TX] 01 03 02 E1 00 01 D5 84 
[RX] (5 bytes) 01 83 02 C0 F1 
[MODBUS] Exception: 0x02 (Gecersiz adres)
[TX] 01 03 02 E2 00 01 25 84 
[RX] (5 bytes) 01 83 02 C0 F1 
[MODBUS] Exception: 0x02 (Gecersiz adres)
[TX] 01 03 02 E3 00 01 74 44 
[RX] (5 bytes) 01 83 02 C0 F1 
[MODBUS] Exception: 0x02 (Gecersiz adres)
[TX] 01 03 02 E4 00 01 C5 85 
[RX] (5 bytes) 01 83 02 C0 F1 
[MODBUS] Exception: 0x02 (Gecersiz adres)
[TX] 01 03 02 E5 00 01 94 45 
[RX] (5 bytes) 01 83 02 C0 F1 
[MODBUS] Exception: 0x02 (Gecersiz adres)
[TX] 01 03 02 E6 00 01 64 45 
[RX] (5 bytes) 01 83 02 C0 F1 
[MODBUS] Exception: 0x02 (Gecersiz adres)
[TX] 01 03 02 E7 00 01 35 85 
[RX] (5 bytes) 01 83 02 C0 F1 
[MODBUS] Exception: 0x02 (Gecersiz adres)
[TX] 01 03 02 E8 00 01 05 86 
[RX] (5 bytes) 01 83 02 C0 F1 
[MODBUS] Exception: 0x02 (Gecersiz adres)
[TX] 01 03 02 E9 00 01 54 46 
[RX] (5 bytes) 01 83 02 C0 F1 
[MODBUS] Exception: 0x02 (Gecersiz adres)
[TX] 01 03 02 EA 00 01 A4 46 
[RX] (5 bytes) 01 83 02 C0 F1 
[MODBUS] Exception: 0x02 (Gecersiz adres)
[TX] 01 03 02 EB 00 01 F5 86 
[RX] (5 bytes) 01 83 02 C0 F1 
[MODBUS] Exception: 0x02 (Gecersiz adres)
[TX] 01 03 02 EC 00 01 44 47 
[RX] (5 bytes) 01 83 02 C0 F1 
[MODBUS] Exception: 0x02 (Gecersiz adres)
[TX] 01 03 02 ED 00 01 15 87 
[RX] (5 bytes) 01 83 02 C0 F1 
[MODBUS] Exception: 0x02 (Gecersiz adres)
[TX] 01 03 02 EE 00 01 E5 87 
[RX] (5 bytes) 01 83 02 C0 F1 
[MODBUS] Exception: 0x02 (Gecersiz adres)
[TX] 01 03 02 EF 00 01 B4 47 
[RX] (5 bytes) 01 83 02 C0 F1 
[MODBUS] Exception: 0x02 (Gecersiz adres)
[TX] 01 03 02 F0 00 01 85 81 
[RX] (5 bytes) 01 83 02 C0 F1 
[MODBUS] Exception: 0x02 (Gecersiz adres)
[TX] 01 03 02 F1 00 01 D4 41 
[RX] (5 bytes) 01 83 02 C0 F1 
[MODBUS] Exception: 0x02 (Gecersiz adres)
[TX] 01 03 02 F2 00 01 24 41 
[RX] (5 bytes) 01 83 02 C0 F1 
[MODBUS] Exception: 0x02 (Gecersiz adres)
[TX] 01 03 02 F3 00 01 75 81 
[RX] (5 bytes) 01 83 02 C0 F1 
[MODBUS] Exception: 0x02 (Gecersiz adres)
[TX] 01 03 02 F4 00 01 C4 40 
[RX] (5 bytes) 01 83 02 C0 F1 
[MODBUS] Exception: 0x02 (Gecersiz adres)
[TX] 01 03 02 F5 00 01 95 80 
[RX] (5 bytes) 01 83 02 C0 F1 
[MODBUS] Exception: 0x02 (Gecersiz adres)
[TX] 01 03 02 F6 00 01 65 80 
[RX] (5 bytes) 01 83 02 C0 F1 
[MODBUS] Exception: 0x02 (Gecersiz adres)
[TX] 01 03 02 F7 00 01 34 40 
[RX] (5 bytes) 01 83 02 C0 F1 
[MODBUS] Exception: 0x02 (Gecersiz adres)
[TX] 01 03 02 F8 00 01 04 43 
[RX] (5 bytes) 01 83 02 C0 F1 
[MODBUS] Exception: 0x02 (Gecersiz adres)
[TX] 01 03 02 F9 00 01 55 83 
[RX] (5 bytes) 01 83 02 C0 F1 
[MODBUS] Exception: 0x02 (Gecersiz adres)
[TX] 01 03 02 FA 00 01 A5 83 
[RX] (5 bytes) 01 83 02 C0 F1 
[MODBUS] Exception: 0x02 (Gecersiz adres)
[TX] 01 03 02 FB 00 01 F4 43 
[RX] (5 bytes) 01 83 02 C0 F1 
[MODBUS] Exception: 0x02 (Gecersiz adres)
[TX] 01 03 02 FC 00 01 45 82 
[RX] (5 bytes) 01 83 02 C0 F1 
[MODBUS] Exception: 0x02 (Gecersiz adres)
[TX] 01 03 02 FD 00 01 14 42 
[RX] (5 bytes) 01 83 02 C0 F1 
[MODBUS] Exception: 0x02 (Gecersiz adres)
[TX] 01 03 02 FE 00 01 E4 42 
[RX] (5 bytes) 01 83 02 C0 F1 
[MODBUS] Exception: 0x02 (Gecersiz adres)
[TX] 01 03 02 FF 00 01 B5 82 
[RX] (5 bytes) 01 83 02 C0 F1 
[MODBUS] Exception: 0x02 (Gecersiz adres)
[TX] 01 03 03 00 00 01 84 4E 
[RX] (5 bytes) 01 83 02 C0 F1 
[MODBUS] Exception: 0x02 (Gecersiz adres)
[TX] 01 03 03 01 00 01 D5 8E 
[RX] (5 bytes) 01 83 02 C0 F1 
[MODBUS] Exception: 0x02 (Gecersiz adres)
[TX] 01 03 03 02 00 01 25 8E 
[RX] (5 bytes) 01 83 02 C0 F1 
[MODBUS] Exception: 0x02 (Gecersiz adres)
[TX] 01 03 03 03 00 01 74 4E 
[RX] (5 bytes) 01 83 02 C0 F1 
[MODBUS] Exception: 0x02 (Gecersiz adres)
[TX] 01 03 03 04 00 01 C5 8F 
[RX] (5 bytes) 01 83 02 C0 F1 
[MODBUS] Exception: 0x02 (Gecersiz adres)
[TX] 01 03 03 05 00 01 94 4F 
[RX] (5 bytes) 01 83 02 C0 F1 
[MODBUS] Exception: 0x02 (Gecersiz adres)
[TX] 01 03 03 06 00 01 64 4F 
[RX] (5 bytes) 01 83 02 C0 F1 
[MODBUS] Exception: 0x02 (Gecersiz adres)
[TX] 01 03 03 07 00 01 35 8F 
[RX] (5 bytes) 01 83 02 C0 F1 
[MODBUS] Exception: 0x02 (Gecersiz adres)
[TX] 01 03 03 08 00 01 05 8C 
[RX] (5 bytes) 01 83 02 C0 F1 
[MODBUS] Exception: 0x02 (Gecersiz adres)
[TX] 01 03 03 09 00 01 54 4C 
[RX] (5 bytes) 01 83 02 C0 F1 
[MODBUS] Exception: 0x02 (Gecersiz adres)
[TX] 01 03 03 0A 00 01 A4 4C 
[RX] (5 bytes) 01 83 02 C0 F1 
[MODBUS] Exception: 0x02 (Gecersiz adres)
[TX] 01 03 03 0B 00 01 F5 8C 
[RX] (5 bytes) 01 83 02 C0 F1 
[MODBUS] Exception: 0x02 (Gecersiz adres)
[TX] 01 03 03 0C 00 01 44 4D 
[RX] (5 bytes) 01 83 02 C0 F1 
[MODBUS] Exception: 0x02 (Gecersiz adres)
[TX] 01 03 03 0D 00 01 15 8D 
[RX] (5 bytes) 01 83 02 C0 F1 
[MODBUS] Exception: 0x02 (Gecersiz adres)
[TX] 01 03 03 0E 00 01 E5 8D 
[RX] (5 bytes) 01 83 02 C0 F1 
[MODBUS] Exception: 0x02 (Gecersiz adres)
[TX] 01 03 03 0F 00 01 B4 4D 
[RX] (5 bytes) 01 83 02 C0 F1 
[MODBUS] Exception: 0x02 (Gecersiz adres)
[TX] 01 03 03 10 00 01 85 8B 
[RX] (5 bytes) 01 83 02 C0 F1 
[MODBUS] Exception: 0x02 (Gecersiz adres)
[TX] 01 03 03 11 00 01 D4 4B 
[RX] (5 bytes) 01 83 02 C0 F1 
[MODBUS] Exception: 0x02 (Gecersiz adres)
[TX] 01 03 03 12 00 01 24 4B 
[RX] (5 bytes) 01 83 02 C0 F1 
[MODBUS] Exception: 0x02 (Gecersiz adres)
[TX] 01 03 03 13 00 01 75 8B 
[RX] (5 bytes) 01 83 02 C0 F1 
[MODBUS] Exception: 0x02 (Gecersiz adres)
[TX] 01 03 03 14 00 01 C4 4A 
[RX] (5 bytes) 01 83 02 C0 F1 
[MODBUS] Exception: 0x02 (Gecersiz adres)
[TX] 01 03 03 15 00 01 95 8A 
[RX] (5 bytes) 01 83 02 C0 F1 
[MODBUS] Exception: 0x02 (Gecersiz adres)
[TX] 01 03 03 16 00 01 65 8A 
[RX] (5 bytes) 01 83 02 C0 F1 
[MODBUS] Exception: 0x02 (Gecersiz adres)
[TX] 01 03 03 17 00 01 34 4A 
[RX] (5 bytes) 01 83 02 C0 F1 
[MODBUS] Exception: 0x02 (Gecersiz adres)
[TX] 01 03 03 18 00 01 04 49 
[RX] (5 bytes) 01 83 02 C0 F1 
[MODBUS] Exception: 0x02 (Gecersiz adres)
[TX] 01 03 03 19 00 01 55 89 
[RX] (5 bytes) 01 83 02 C0 F1 
[MODBUS] Exception: 0x02 (Gecersiz adres)
[TX] 01 03 03 1A 00 01 A5 89 
[RX] (5 bytes) 01 83 02 C0 F1 
[MODBUS] Exception: 0x02 (Gecersiz adres)
[TX] 01 03 03 1B 00 01 F4 49 
[RX] (5 bytes) 01 83 02 C0 F1 
[MODBUS] Exception: 0x02 (Gecersiz adres)
[TX] 01 03 03 1C 00 01 45 88 
[RX] (5 bytes) 01 83 02 C0 F1 
[MODBUS] Exception: 0x02 (Gecersiz adres)
[TX] 01 03 03 1D 00 01 14 48 
[RX] (5 bytes) 01 83 02 C0 F1 
[MODBUS] Exception: 0x02 (Gecersiz adres)
[TX] 01 03 03 1E 00 01 E4 48 
[RX] (5 bytes) 01 83 02 C0 F1 
[MODBUS] Exception: 0x02 (Gecersiz adres)
[TX] 01 03 03 1F 00 01 B5 88 
[RX] (5 bytes) 01 83 02 C0 F1 
[MODBUS] Exception: 0x02 (Gecersiz adres)
[TX] 01 03 03 20 00 01 85 84 
[RX] (5 bytes) 01 83 02 C0 F1 
[MODBUS] Exception: 0x02 (Gecersiz adres)
[TX] 01 03 03 21 00 01 D4 44 
[RX] (5 bytes) 01 83 02 C0 F1 
[MODBUS] Exception: 0x02 (Gecersiz adres)
[TX] 01 03 03 22 00 01 24 44 
[RX] (5 bytes) 01 83 02 C0 F1 
[MODBUS] Exception: 0x02 (Gecersiz adres)
[TX] 01 03 03 23 00 01 75 84 
[RX] (5 bytes) 01 83 02 C0 F1 
[MODBUS] Exception: 0x02 (Gecersiz adres)
[TX] 01 03 03 24 00 01 C4 45 
[RX] (5 bytes) 01 83 02 C0 F1 
[MODBUS] Exception: 0x02 (Gecersiz adres)
[TX] 01 03 03 25 00 01 95 85 
[RX] (5 bytes) 01 83 02 C0 F1 
[MODBUS] Exception: 0x02 (Gecersiz adres)
[TX] 01 03 03 26 00 01 65 85 
[RX] (5 bytes) 01 83 02 C0 F1 
[MODBUS] Exception: 0x02 (Gecersiz adres)
[TX] 01 03 03 27 00 01 34 45 
[RX] (5 bytes) 01 83 02 C0 F1 
[MODBUS] Exception: 0x02 (Gecersiz adres)
[TX] 01 03 03 28 00 01 04 46 
[RX] (5 bytes) 01 83 02 C0 F1 
[MODBUS] Exception: 0x02 (Gecersiz adres)
[TX] 01 03 03 29 00 01 55 86 
[RX] (5 bytes) 01 83 02 C0 F1 
[MODBUS] Exception: 0x02 (Gecersiz adres)
[TX] 01 03 03 2A 00 01 A5 86 
[RX] (5 bytes) 01 83 02 C0 F1 
[MODBUS] Exception: 0x02 (Gecersiz adres)
[TX] 01 03 03 2B 00 01 F4 46 
[RX] (5 bytes) 01 83 02 C0 F1 
[MODBUS] Exception: 0x02 (Gecersiz adres)
[TX] 01 03 03 2C 00 01 45 87 
[RX] (5 bytes) 01 83 02 C0 F1 
[MODBUS] Exception: 0x02 (Gecersiz adres)
[TX] 01 03 03 2D 00 01 14 47 
[RX] (5 bytes) 01 83 02 C0 F1 
[MODBUS] Exception: 0x02 (Gecersiz adres)
[TX] 01 03 03 2E 00 01 E4 47 
[RX] (5 bytes) 01 83 02 C0 F1 
[MODBUS] Exception: 0x02 (Gecersiz adres)
[TX] 01 03 03 2F 00 01 B5 87 
[RX] (5 bytes) 01 83 02 C0 F1 
[MODBUS] Exception: 0x02 (Gecersiz adres)
[TX] 01 03 03 30 00 01 84 41 
[RX] (5 bytes) 01 83 02 C0 F1 
[MODBUS] Exception: 0x02 (Gecersiz adres)
[TX] 01 03 03 31 00 01 D5 81 
[RX] (5 bytes) 01 83 02 C0 F1 
[MODBUS] Exception: 0x02 (Gecersiz adres)
[TX] 01 03 03 32 00 01 25 81 
[RX] (5 bytes) 01 83 02 C0 F1 
[MODBUS] Exception: 0x02 (Gecersiz adres)
[TX] 01 03 03 33 00 01 74 41 
[RX] (5 bytes) 01 83 02 C0 F1 
[MODBUS] Exception: 0x02 (Gecersiz adres)
[TX] 01 03 03 34 00 01 C5 80 
[RX] (5 bytes) 01 83 02 C0 F1 
[MODBUS] Exception: 0x02 (Gecersiz adres)
[TX] 01 03 03 35 00 01 94 40 
[RX] (5 bytes) 01 83 02 C0 F1 
[MODBUS] Exception: 0x02 (Gecersiz adres)
[TX] 01 03 03 36 00 01 64 40 
[RX] (5 bytes) 01 83 02 C0 F1 
[MODBUS] Exception: 0x02 (Gecersiz adres)
[TX] 01 03 03 37 00 01 35 80 
[RX] (5 bytes) 01 83 02 C0 F1 
[MODBUS] Exception: 0x02 (Gecersiz adres)
[TX] 01 03 03 38 00 01 05 83 
[RX] (5 bytes) 01 83 02 C0 F1 
[MODBUS] Exception: 0x02 (Gecersiz adres)
[TX] 01 03 03 39 00 01 54 43 
[RX] (5 bytes) 01 83 02 C0 F1 
[MODBUS] Exception: 0x02 (Gecersiz adres)
[TX] 01 03 03 3A 00 01 A4 43 
[RX] (5 bytes) 01 83 02 C0 F1 
[MODBUS] Exception: 0x02 (Gecersiz adres)
[TX] 01 03 03 3B 00 01 F5 83 
[RX] (5 bytes) 01 83 02 C0 F1 
[MODBUS] Exception: 0x02 (Gecersiz adres)
[TX] 01 03 03 3C 00 01 44 42 
[RX] (5 bytes) 01 83 02 C0 F1 
[MODBUS] Exception: 0x02 (Gecersiz adres)
[TX] 01 03 03 3D 00 01 15 82 
[RX] (5 bytes) 01 83 02 C0 F1 
[MODBUS] Exception: 0x02 (Gecersiz adres)
[TX] 01 03 03 3E 00 01 E5 82 
[RX] (5 bytes) 01 83 02 C0 F1 
[MODBUS] Exception: 0x02 (Gecersiz adres)
[TX] 01 03 03 3F 00 01 B4 42 
[RX] (5 bytes) 01 83 02 C0 F1 
[MODBUS] Exception: 0x02 (Gecersiz adres)
[TX] 01 03 03 40 00 01 85 9A 
[RX] (5 bytes) 01 83 02 C0 F1 
[MODBUS] Exception: 0x02 (Gecersiz adres)
[TX] 01 03 03 41 00 01 D4 5A 
[RX] (5 bytes) 01 83 02 C0 F1 
[MODBUS] Exception: 0x02 (Gecersiz adres)
[TX] 01 03 03 42 00 01 24 5A 
[RX] (5 bytes) 01 83 02 C0 F1 
[MODBUS] Exception: 0x02 (Gecersiz adres)
[TX] 01 03 03 43 00 01 75 9A 
[RX] (5 bytes) 01 83 02 C0 F1 
[MODBUS] Exception: 0x02 (Gecersiz adres)
[TX] 01 03 03 44 00 01 C4 5B 
[RX] (5 bytes) 01 83 02 C0 F1 
[MODBUS] Exception: 0x02 (Gecersiz adres)
[TX] 01 03 03 45 00 01 95 9B 
[RX] (5 bytes) 01 83 02 C0 F1 
[MODBUS] Exception: 0x02 (Gecersiz adres)
[TX] 01 03 03 46 00 01 65 9B 
[RX] (5 bytes) 01 83 02 C0 F1 
[MODBUS] Exception: 0x02 (Gecersiz adres)
[TX] 01 03 03 47 00 01 34 5B 
[RX] (5 bytes) 01 83 02 C0 F1 
[MODBUS] Exception: 0x02 (Gecersiz adres)
[TX] 01 03 03 48 00 01 04 58 
[RX] (5 bytes) 01 83 02 C0 F1 
[MODBUS] Exception: 0x02 (Gecersiz adres)
[TX] 01 03 03 49 00 01 55 98 
[RX] (5 bytes) 01 83 02 C0 F1 
[MODBUS] Exception: 0x02 (Gecersiz adres)
[TX] 01 03 03 4A 00 01 A5 98 
[RX] (5 bytes) 01 83 02 C0 F1 
[MODBUS] Exception: 0x02 (Gecersiz adres)
[TX] 01 03 03 4B 00 01 F4 58 
[RX] (5 bytes) 01 83 02 C0 F1 
[MODBUS] Exception: 0x02 (Gecersiz adres)
[TX] 01 03 03 4C 00 01 45 99 
[RX] (5 bytes) 01 83 02 C0 F1 
[MODBUS] Exception: 0x02 (Gecersiz adres)
[TX] 01 03 03 4D 00 01 14 59 
[RX] (5 bytes) 01 83 02 C0 F1 
[MODBUS] Exception: 0x02 (Gecersiz adres)
[TX] 01 03 03 4E 00 01 E4 59 
[RX] (5 bytes) 01 83 02 C0 F1 
[MODBUS] Exception: 0x02 (Gecersiz adres)
[TX] 01 03 03 4F 00 01 B5 99 
[RX] (5 bytes) 01 83 02 C0 F1 
[MODBUS] Exception: 0x02 (Gecersiz adres)
[TX] 01 03 03 50 00 01 84 5F 
[RX] (5 bytes) 01 83 02 C0 F1 
[MODBUS] Exception: 0x02 (Gecersiz adres)
[TX] 01 03 03 51 00 01 D5 9F 
[RX] (5 bytes) 01 83 02 C0 F1 
[MODBUS] Exception: 0x02 (Gecersiz adres)
[TX] 01 03 03 52 00 01 25 9F 
[RX] (5 bytes) 01 83 02 C0 F1 
[MODBUS] Exception: 0x02 (Gecersiz adres)
[TX] 01 03 03 53 00 01 74 5F 
[RX] (5 bytes) 01 83 02 C0 F1 
[MODBUS] Exception: 0x02 (Gecersiz adres)
[TX] 01 03 03 54 00 01 C5 9E 
[RX] (5 bytes) 01 83 02 C0 F1 
[MODBUS] Exception: 0x02 (Gecersiz adres)
[TX] 01 03 03 55 00 01 94 5E 
[RX] (5 bytes) 01 83 02 C0 F1 
[MODBUS] Exception: 0x02 (Gecersiz adres)
[TX] 01 03 03 56 00 01 64 5E 
[RX] (5 bytes) 01 83 02 C0 F1 
[MODBUS] Exception: 0x02 (Gecersiz adres)
[TX] 01 03 03 57 00 01 35 9E 
[RX] (5 bytes) 01 83 02 C0 F1 
[MODBUS] Exception: 0x02 (Gecersiz adres)
[TX] 01 03 03 58 00 01 05 9D 
[RX] (5 bytes) 01 83 02 C0 F1 
[MODBUS] Exception: 0x02 (Gecersiz adres)
[TX] 01 03 03 59 00 01 54 5D 
[RX] (5 bytes) 01 83 02 C0 F1 
[MODBUS] Exception: 0x02 (Gecersiz adres)
[TX] 01 03 03 5A 00 01 A4 5D 
[RX] (5 bytes) 01 83 02 C0 F1 
[MODBUS] Exception: 0x02 (Gecersiz adres)
[TX] 01 03 03 5B 00 01 F5 9D 
[RX] (5 bytes) 01 83 02 C0 F1 
[MODBUS] Exception: 0x02 (Gecersiz adres)
[TX] 01 03 03 5C 00 01 44 5C 
[RX] (5 bytes) 01 83 02 C0 F1 
[MODBUS] Exception: 0x02 (Gecersiz adres)
[TX] 01 03 03 5D 00 01 15 9C 
[RX] (5 bytes) 01 83 02 C0 F1 
[MODBUS] Exception: 0x02 (Gecersiz adres)
[TX] 01 03 03 5E 00 01 E5 9C 
[RX] (5 bytes) 01 83 02 C0 F1 
[MODBUS] Exception: 0x02 (Gecersiz adres)
[TX] 01 03 03 5F 00 01 B4 5C 
[RX] (5 bytes) 01 83 02 C0 F1 
[MODBUS] Exception: 0x02 (Gecersiz adres)
[TX] 01 03 03 60 00 01 84 50 
[RX] (5 bytes) 01 83 02 C0 F1 
[MODBUS] Exception: 0x02 (Gecersiz adres)
[TX] 01 03 03 61 00 01 D5 90 
[RX] (5 bytes) 01 83 02 C0 F1 
[MODBUS] Exception: 0x02 (Gecersiz adres)
[TX] 01 03 03 62 00 01 25 90 
[RX] (5 bytes) 01 83 02 C0 F1 
[MODBUS] Exception: 0x02 (Gecersiz adres)
[TX] 01 03 03 63 00 01 74 50 
[RX] (5 bytes) 01 83 02 C0 F1 
[MODBUS] Exception: 0x02 (Gecersiz adres)
[TX] 01 03 03 64 00 01 C5 91 
[RX] (5 bytes) 01 83 02 C0 F1 
[MODBUS] Exception: 0x02 (Gecersiz adres)
[TX] 01 03 03 65 00 01 94 51 
[RX] (5 bytes) 01 83 02 C0 F1 
[MODBUS] Exception: 0x02 (Gecersiz adres)
[TX] 01 03 03 66 00 01 64 51 
[RX] (5 bytes) 01 83 02 C0 F1 
[MODBUS] Exception: 0x02 (Gecersiz adres)
[TX] 01 03 03 67 00 01 35 91 
[RX] (5 bytes) 01 83 02 C0 F1 
[MODBUS] Exception: 0x02 (Gecersiz adres)
[TX] 01 03 03 68 00 01 05 92 
[RX] (5 bytes) 01 83 02 C0 F1 
[MODBUS] Exception: 0x02 (Gecersiz adres)
[TX] 01 03 03 69 00 01 54 52 
[RX] (5 bytes) 01 83 02 C0 F1 
[MODBUS] Exception: 0x02 (Gecersiz adres)
[TX] 01 03 03 6A 00 01 A4 52 
[RX] (5 bytes) 01 83 02 C0 F1 
[MODBUS] Exception: 0x02 (Gecersiz adres)
[TX] 01 03 03 6B 00 01 F5 92 
[RX] (5 bytes) 01 83 02 C0 F1 
[MODBUS] Exception: 0x02 (Gecersiz adres)
[TX] 01 03 03 6C 00 01 44 53 
[RX] (5 bytes) 01 83 02 C0 F1 
[MODBUS] Exception: 0x02 (Gecersiz adres)
[TX] 01 03 03 6D 00 01 15 93 
[RX] (5 bytes) 01 83 02 C0 F1 
[MODBUS] Exception: 0x02 (Gecersiz adres)
[TX] 01 03 03 6E 00 01 E5 93 
[RX] (5 bytes) 01 83 02 C0 F1 
[MODBUS] Exception: 0x02 (Gecersiz adres)
[TX] 01 03 03 6F 00 01 B4 53 
[RX] (5 bytes) 01 83 02 C0 F1 
[MODBUS] Exception: 0x02 (Gecersiz adres)
[TX] 01 03 03 70 00 01 85 95 
[RX] (5 bytes) 01 83 02 C0 F1 
[MODBUS] Exception: 0x02 (Gecersiz adres)
[TX] 01 03 03 71 00 01 D4 55 
[RX] (5 bytes) 01 83 02 C0 F1 
[MODBUS] Exception: 0x02 (Gecersiz adres)
[TX] 01 03 03 72 00 01 24 55 
[RX] (5 bytes) 01 83 02 C0 F1 
[MODBUS] Exception: 0x02 (Gecersiz adres)
[TX] 01 03 03 73 00 01 75 95 
[RX] (5 bytes) 01 83 02 C0 F1 
[MODBUS] Exception: 0x02 (Gecersiz adres)
[TX] 01 03 03 74 00 01 C4 54 
[RX] (5 bytes) 01 83 02 C0 F1 
[MODBUS] Exception: 0x02 (Gecersiz adres)
[TX] 01 03 03 75 00 01 95 94 
[RX] (5 bytes) 01 83 02 C0 F1 
[MODBUS] Exception: 0x02 (Gecersiz adres)
[TX] 01 03 03 76 00 01 65 94 
[RX] (5 bytes) 01 83 02 C0 F1 
[MODBUS] Exception: 0x02 (Gecersiz adres)
[TX] 01 03 03 77 00 01 34 54 
[RX] (5 bytes) 01 83 02 C0 F1 
[MODBUS] Exception: 0x02 (Gecersiz adres)
[TX] 01 03 03 78 00 01 04 57 
[RX] (5 bytes) 01 83 02 C0 F1 
[MODBUS] Exception: 0x02 (Gecersiz adres)
[TX] 01 03 03 79 00 01 55 97 
[RX] (5 bytes) 01 83 02 C0 F1 
[MODBUS] Exception: 0x02 (Gecersiz adres)
[TX] 01 03 03 7A 00 01 A5 97 
[RX] (5 bytes) 01 83 02 C0 F1 
[MODBUS] Exception: 0x02 (Gecersiz adres)
[TX] 01 03 03 7B 00 01 F4 57 
[RX] (5 bytes) 01 83 02 C0 F1 
[MODBUS] Exception: 0x02 (Gecersiz adres)
[TX] 01 03 03 7C 00 01 45 96 
[RX] (5 bytes) 01 83 02 C0 F1 
[MODBUS] Exception: 0x02 (Gecersiz adres)
[TX] 01 03 03 7D 00 01 14 56 
[RX] (5 bytes) 01 83 02 C0 F1 
[MODBUS] Exception: 0x02 (Gecersiz adres)
[TX] 01 03 03 7E 00 01 E4 56 
[RX] (5 bytes) 01 83 02 C0 F1 
[MODBUS] Exception: 0x02 (Gecersiz adres)
[TX] 01 03 03 7F 00 01 B5 96 
[RX] (5 bytes) 01 83 02 C0 F1 
[MODBUS] Exception: 0x02 (Gecersiz adres)
[TX] 01 03 03 80 00 01 85 A6 
[RX] (5 bytes) 01 83 02 C0 F1 
[MODBUS] Exception: 0x02 (Gecersiz adres)
[TX] 01 03 03 81 00 01 D4 66 
[RX] (5 bytes) 01 83 02 C0 F1 
[MODBUS] Exception: 0x02 (Gecersiz adres)
[TX] 01 03 03 82 00 01 24 66 
[RX] (5 bytes) 01 83 02 C0 F1 
[MODBUS] Exception: 0x02 (Gecersiz adres)
[TX] 01 03 03 83 00 01 75 A6 
[RX] (5 bytes) 01 83 02 C0 F1 
[MODBUS] Exception: 0x02 (Gecersiz adres)
[TX] 01 03 03 84 00 01 C4 67 
[RX] (5 bytes) 01 83 02 C0 F1 
[MODBUS] Exception: 0x02 (Gecersiz adres)
[TX] 01 03 03 85 00 01 95 A7 
[RX] (5 bytes) 01 83 02 C0 F1 
[MODBUS] Exception: 0x02 (Gecersiz adres)
[TX] 01 03 03 86 00 01 65 A7 
[RX] (5 bytes) 01 83 02 C0 F1 
[MODBUS] Exception: 0x02 (Gecersiz adres)
[TX] 01 03 03 87 00 01 34 67 
[RX] (5 bytes) 01 83 02 C0 F1 
[MODBUS] Exception: 0x02 (Gecersiz adres)
[TX] 01 03 03 88 00 01 04 64 
[RX] (5 bytes) 01 83 02 C0 F1 
[MODBUS] Exception: 0x02 (Gecersiz adres)
[TX] 01 03 03 89 00 01 55 A4 
[RX] (5 bytes) 01 83 02 C0 F1 
[MODBUS] Exception: 0x02 (Gecersiz adres)
[TX] 01 03 03 8A 00 01 A5 A4 
[RX] (5 bytes) 01 83 02 C0 F1 
[MODBUS] Exception: 0x02 (Gecersiz adres)
[TX] 01 03 03 8B 00 01 F4 64 
[RX] (5 bytes) 01 83 02 C0 F1 
[MODBUS] Exception: 0x02 (Gecersiz adres)
[TX] 01 03 03 8C 00 01 45 A5 
[RX] (5 bytes) 01 83 02 C0 F1 
[MODBUS] Exception: 0x02 (Gecersiz adres)
[TX] 01 03 03 8D 00 01 14 65 
[RX] (5 bytes) 01 83 02 C0 F1 
[MODBUS] Exception: 0x02 (Gecersiz adres)
[TX] 01 03 03 8E 00 01 E4 65 
[RX] (5 bytes) 01 83 02 C0 F1 
[MODBUS] Exception: 0x02 (Gecersiz adres)
[TX] 01 03 03 8F 00 01 B5 A5 
[RX] (5 bytes) 01 83 02 C0 F1 
[MODBUS] Exception: 0x02 (Gecersiz adres)
[TX] 01 03 03 90 00 01 84 63 
[RX] (5 bytes) 01 83 02 C0 F1 
[MODBUS] Exception: 0x02 (Gecersiz adres)
[TX] 01 03 03 91 00 01 D5 A3 
[RX] (5 bytes) 01 83 02 C0 F1 
[MODBUS] Exception: 0x02 (Gecersiz adres)
[TX] 01 03 03 92 00 01 25 A3 
[RX] (5 bytes) 01 83 02 C0 F1 
[MODBUS] Exception: 0x02 (Gecersiz adres)
[TX] 01 03 03 93 00 01 74 63 
[RX] (5 bytes) 01 83 02 C0 F1 
[MODBUS] Exception: 0x02 (Gecersiz adres)
[TX] 01 03 03 94 00 01 C5 A2 
[RX] (5 bytes) 01 83 02 C0 F1 
[MODBUS] Exception: 0x02 (Gecersiz adres)
[TX] 01 03 03 95 00 01 94 62 
[RX] (5 bytes) 01 83 02 C0 F1 
[MODBUS] Exception: 0x02 (Gecersiz adres)
[TX] 01 03 03 96 00 01 64 62 
[RX] (5 bytes) 01 83 02 C0 F1 
[MODBUS] Exception: 0x02 (Gecersiz adres)
[TX] 01 03 03 97 00 01 35 A2 
[RX] (5 bytes) 01 83 02 C0 F1 
[MODBUS] Exception: 0x02 (Gecersiz adres)
[TX] 01 03 03 98 00 01 05 A1 
[RX] (5 bytes) 01 83 02 C0 F1 
[MODBUS] Exception: 0x02 (Gecersiz adres)
[TX] 01 03 03 99 00 01 54 61 
[RX] (5 bytes) 01 83 02 C0 F1 
[MODBUS] Exception: 0x02 (Gecersiz adres)
[TX] 01 03 03 9A 00 01 A4 61 
[RX] (5 bytes) 01 83 02 C0 F1 
[MODBUS] Exception: 0x02 (Gecersiz adres)
[TX] 01 03 03 9B 00 01 F5 A1 
[RX] (5 bytes) 01 83 02 C0 F1 
[MODBUS] Exception: 0x02 (Gecersiz adres)
[TX] 01 03 03 9C 00 01 44 60 
[RX] (5 bytes) 01 83 02 C0 F1 
[MODBUS] Exception: 0x02 (Gecersiz adres)
[TX] 01 03 03 9D 00 01 15 A0 
[RX] (5 bytes) 01 83 02 C0 F1 
[MODBUS] Exception: 0x02 (Gecersiz adres)
[TX] 01 03 03 9E 00 01 E5 A0 
[RX] (5 bytes) 01 83 02 C0 F1 
[MODBUS] Exception: 0x02 (Gecersiz adres)
[TX] 01 03 03 9F 00 01 B4 60 
[RX] (5 bytes) 01 83 02 C0 F1 
[MODBUS] Exception: 0x02 (Gecersiz adres)
[TX] 01 03 03 A0 00 01 84 6C 
[RX] (5 bytes) 01 83 02 C0 F1 
[MODBUS] Exception: 0x02 (Gecersiz adres)
[TX] 01 03 03 A1 00 01 D5 AC 
[RX] (5 bytes) 01 83 02 C0 F1 
[MODBUS] Exception: 0x02 (Gecersiz adres)
[TX] 01 03 03 A2 00 01 25 AC 
[RX] (5 bytes) 01 83 02 C0 F1 
[MODBUS] Exception: 0x02 (Gecersiz adres)
[TX] 01 03 03 A3 00 01 74 6C 
[RX] (5 bytes) 01 83 02 C0 F1 
[MODBUS] Exception: 0x02 (Gecersiz adres)
[TX] 01 03 03 A4 00 01 C5 AD 
[RX] (5 bytes) 01 83 02 C0 F1 
[MODBUS] Exception: 0x02 (Gecersiz adres)
[TX] 01 03 03 A5 00 01 94 6D 
[RX] (5 bytes) 01 83 02 C0 F1 
[MODBUS] Exception: 0x02 (Gecersiz adres)
[TX] 01 03 03 A6 00 01 64 6D 
[RX] (5 bytes) 01 83 02 C0 F1 
[MODBUS] Exception: 0x02 (Gecersiz adres)
[TX] 01 03 03 A7 00 01 35 AD 
[RX] (5 bytes) 01 83 02 C0 F1 
[MODBUS] Exception: 0x02 (Gecersiz adres)
[TX] 01 03 03 A8 00 01 05 AE 
[RX] (5 bytes) 01 83 02 C0 F1 
[MODBUS] Exception: 0x02 (Gecersiz adres)
[TX] 01 03 03 A9 00 01 54 6E 
[RX] (5 bytes) 01 83 02 C0 F1 
[MODBUS] Exception: 0x02 (Gecersiz adres)
[TX] 01 03 03 AA 00 01 A4 6E 
[RX] (5 bytes) 01 83 02 C0 F1 
[MODBUS] Exception: 0x02 (Gecersiz adres)
[TX] 01 03 03 AB 00 01 F5 AE 
[RX] (5 bytes) 01 83 02 C0 F1 
[MODBUS] Exception: 0x02 (Gecersiz adres)
[TX] 01 03 03 AC 00 01 44 6F 
[RX] (5 bytes) 01 83 02 C0 F1 
[MODBUS] Exception: 0x02 (Gecersiz adres)
[TX] 01 03 03 AD 00 01 15 AF 
[RX] (5 bytes) 01 83 02 C0 F1 
[MODBUS] Exception: 0x02 (Gecersiz adres)
[TX] 01 03 03 AE 00 01 E5 AF 
[RX] (5 bytes) 01 83 02 C0 F1 
[MODBUS] Exception: 0x02 (Gecersiz adres)
[TX] 01 03 03 AF 00 01 B4 6F 
[RX] (5 bytes) 01 83 02 C0 F1 
[MODBUS] Exception: 0x02 (Gecersiz adres)
[TX] 01 03 03 B0 00 01 85 A9 
[RX] (5 bytes) 01 83 02 C0 F1 
[MODBUS] Exception: 0x02 (Gecersiz adres)
[TX] 01 03 03 B1 00 01 D4 69 
[RX] (5 bytes) 01 83 02 C0 F1 
[MODBUS] Exception: 0x02 (Gecersiz adres)
[TX] 01 03 03 B2 00 01 24 69 
[RX] (5 bytes) 01 83 02 C0 F1 
[MODBUS] Exception: 0x02 (Gecersiz adres)
[TX] 01 03 03 B3 00 01 75 A9 
[RX] (5 bytes) 01 83 02 C0 F1 
[MODBUS] Exception: 0x02 (Gecersiz adres)
[TX] 01 03 03 B4 00 01 C4 68 
[RX] (5 bytes) 01 83 02 C0 F1 
[MODBUS] Exception: 0x02 (Gecersiz adres)
[TX] 01 03 03 B5 00 01 95 A8 
[RX] (5 bytes) 01 83 02 C0 F1 
[MODBUS] Exception: 0x02 (Gecersiz adres)
[TX] 01 03 03 B6 00 01 65 A8 
[RX] (5 bytes) 01 83 02 C0 F1 
[MODBUS] Exception: 0x02 (Gecersiz adres)
[TX] 01 03 03 B7 00 01 34 68 
[RX] (5 bytes) 01 83 02 C0 F1 
[MODBUS] Exception: 0x02 (Gecersiz adres)
[TX] 01 03 03 B8 00 01 04 6B 
[RX] (5 bytes) 01 83 02 C0 F1 
[MODBUS] Exception: 0x02 (Gecersiz adres)
[TX] 01 03 03 B9 00 01 55 AB 
[RX] (5 bytes) 01 83 02 C0 F1 
[MODBUS] Exception: 0x02 (Gecersiz adres)
[TX] 01 03 03 BA 00 01 A5 AB 
[RX] (5 bytes) 01 83 02 C0 F1 
[MODBUS] Exception: 0x02 (Gecersiz adres)
[TX] 01 03 03 BB 00 01 F4 6B 
[RX] (5 bytes) 01 83 02 C0 F1 
[MODBUS] Exception: 0x02 (Gecersiz adres)
[TX] 01 03 03 BC 00 01 45 AA 
[RX] (5 bytes) 01 83 02 C0 F1 
[MODBUS] Exception: 0x02 (Gecersiz adres)
[TX] 01 03 03 BD 00 01 14 6A 
[RX] (5 bytes) 01 83 02 C0 F1 
[MODBUS] Exception: 0x02 (Gecersiz adres)
[TX] 01 03 03 BE 00 01 E4 6A 
[RX] (5 bytes) 01 83 02 C0 F1 
[MODBUS] Exception: 0x02 (Gecersiz adres)
[TX] 01 03 03 BF 00 01 B5 AA 
[RX] (5 bytes) 01 83 02 C0 F1 
[MODBUS] Exception: 0x02 (Gecersiz adres)
[TX] 01 03 03 C0 00 01 84 72 
[RX] (5 bytes) 01 83 02 C0 F1 
[MODBUS] Exception: 0x02 (Gecersiz adres)
[TX] 01 03 03 C1 00 01 D5 B2 
[RX] (5 bytes) 01 83 02 C0 F1 
[MODBUS] Exception: 0x02 (Gecersiz adres)
[TX] 01 03 03 C2 00 01 25 B2 
[RX] (5 bytes) 01 83 02 C0 F1 
[MODBUS] Exception: 0x02 (Gecersiz adres)
[TX] 01 03 03 C3 00 01 74 72 
[RX] (5 bytes) 01 83 02 C0 F1 
[MODBUS] Exception: 0x02 (Gecersiz adres)
[TX] 01 03 03 C4 00 01 C5 B3 
[RX] (5 bytes) 01 83 02 C0 F1 
[MODBUS] Exception: 0x02 (Gecersiz adres)
[TX] 01 03 03 C5 00 01 94 73 
[RX] (5 bytes) 01 83 02 C0 F1 
[MODBUS] Exception: 0x02 (Gecersiz adres)
[TX] 01 03 03 C6 00 01 64 73 
[RX] (5 bytes) 01 83 02 C0 F1 
[MODBUS] Exception: 0x02 (Gecersiz adres)
[TX] 01 03 03 C7 00 01 35 B3 
[RX] (5 bytes) 01 83 02 C0 F1 
[MODBUS] Exception: 0x02 (Gecersiz adres)
[TX] 01 03 03 C8 00 01 05 B0 
[RX] (5 bytes) 01 83 02 C0 F1 
[MODBUS] Exception: 0x02 (Gecersiz adres)
[TX] 01 03 03 C9 00 01 54 70 
[RX] (5 bytes) 01 83 02 C0 F1 
[MODBUS] Exception: 0x02 (Gecersiz adres)
[TX] 01 03 03 CA 00 01 A4 70 
[RX] (5 bytes) 01 83 02 C0 F1 
[MODBUS] Exception: 0x02 (Gecersiz adres)
[TX] 01 03 03 CB 00 01 F5 B0 
[RX] (5 bytes) 01 83 02 C0 F1 
[MODBUS] Exception: 0x02 (Gecersiz adres)
[TX] 01 03 03 CC 00 01 44 71 
[RX] (5 bytes) 01 83 02 C0 F1 
[MODBUS] Exception: 0x02 (Gecersiz adres)
[TX] 01 03 03 CD 00 01 15 B1 
[RX] (5 bytes) 01 83 02 C0 F1 
[MODBUS] Exception: 0x02 (Gecersiz adres)
[TX] 01 03 03 CE 00 01 E5 B1 
[RX] (5 bytes) 01 83 02 C0 F1 
[MODBUS] Exception: 0x02 (Gecersiz adres)
[TX] 01 03 03 CF 00 01 B4 71 
[RX] (5 bytes) 01 83 02 C0 F1 
[MODBUS] Exception: 0x02 (Gecersiz adres)
[TX] 01 03 03 D0 00 01 85 B7 
[RX] (5 bytes) 01 83 02 C0 F1 
[MODBUS] Exception: 0x02 (Gecersiz adres)
